CITIFILE A.01.00
#NA VERSION HP8753E.07.12
NAME FORMATTED
VAR FREQ MAG 201
DATA S[2,1] RI
SEG_LIST_BEGIN
SEG 30000 6000000000 201
SEG_LIST_END
BEGIN
6.25244E-1,0E0
7.67272E-1,0E0
7.01934E-1,0E0
6.11755E-1,0E0
5.52917E-1,0E0
4.57046E-1,0E0
4.19555E-1,0E0
3.86901E-1,0E0
3.41140E-1,0E0
1.58927E-1,0E0
1.31111E-1,0E0
1.11484E-1,0E0
7.97042E-2,0E0
1.34239E-1,0E0
1.40174E-1,0E0
1.37878E-1,0E0
1.27044E-1,0E0
1.61216E-1,0E0
1.84349E-1,0E0
2.03132E-1,0E0
2.89917E-1,0E0
3.78997E-1,0E0
3.99261E-1,0E0
3.86016E-1,0E0
3.84674E-1,0E0
3.98086E-1,0E0
4.23522E-1,0E0
3.96987E-1,0E0
4.28421E-1,0E0
4.74411E-1,0E0
4.22119E-1,0E0
4.08203E-1,0E0
4.24179E-1,0E0
4.64630E-1,0E0
4.66995E-1,0E0
4.55047E-1,0E0
4.52163E-1,0E0
4.55658E-1,0E0
4.50088E-1,0E0
4.13162E-1,0E0
3.57132E-1,0E0
2.91732E-1,0E0
1.95793E-1,0E0
1.44317E-1,0E0
1.82388E-1,0E0
2.13211E-1,0E0
2.56164E-1,0E0
3.08883E-1,0E0
3.43048E-1,0E0
3.55896E-1,0E0
3.58139E-1,0E0
3.67431E-1,0E0
3.48754E-1,0E0
3.57849E-1,0E0
3.72604E-1,0E0
3.35296E-1,0E0
3.03451E-1,0E0
2.87048E-1,0E0
2.90039E-1,0E0
2.43820E-1,0E0
2.09442E-1,0E0
2.07435E-1,0E0
2.64831E-1,0E0
3.53958E-1,0E0
3.87329E-1,0E0
4.05563E-1,0E0
3.46176E-1,0E0
2.91153E-1,0E0
3.01422E-1,0E0
2.88696E-1,0E0
2.60055E-1,0E0
2.35038E-1,0E0
2.50762E-1,0E0
2.65899E-1,0E0
2.67807E-1,0E0
2.60345E-1,0E0
2.58422E-1,0E0
2.55661E-1,0E0
2.59750E-1,0E0
2.68325E-1,0E0
2.38014E-1,0E0
2.12799E-1,0E0
1.91658E-1,0E0
1.98005E-1,0E0
1.68983E-1,0E0
1.18339E-1,0E0
7.74459E-2,0E0
5.29823E-2,0E0
6.68830E-2,0E0
1.05361E-1,0E0
1.47232E-1,0E0
1.83685E-1,0E0
2.43133E-1,0E0
3.17092E-1,0E0
3.80935E-1,0E0
4.06463E-1,0E0
4.18167E-1,0E0
4.48074E-1,0E0
4.95925E-1,0E0
4.91760E-1,0E0
4.44030E-1,0E0
3.90686E-1,0E0
3.87908E-1,0E0
4.00070E-1,0E0
4.15466E-1,0E0
4.21981E-1,0E0
3.91433E-1,0E0
3.82873E-1,0E0
3.95843E-1,0E0
4.29916E-1,0E0
4.14352E-1,0E0
3.72161E-1,0E0
3.65066E-1,0E0
3.85604E-1,0E0
4.06738E-1,0E0
3.98681E-1,0E0
3.66775E-1,0E0
3.58383E-1,0E0
3.72238E-1,0E0
3.79104E-1,0E0
3.65158E-1,0E0
3.40118E-1,0E0
3.18679E-1,0E0
3.24462E-1,0E0
3.18130E-1,0E0
3.06518E-1,0E0
2.94204E-1,0E0
2.89337E-1,0E0
3.07144E-1,0E0
3.25500E-1,0E0
3.05358E-1,0E0
2.76855E-1,0E0
2.57110E-1,0E0
2.74780E-1,0E0
2.85705E-1,0E0
2.73834E-1,0E0
2.34718E-1,0E0
2.02941E-1,0E0
1.81167E-1,0E0
1.54998E-1,0E0
1.18026E-1,0E0
7.13348E-2,0E0
3.52268E-2,0E0
2.57692E-2,0E0
4.60128E-2,0E0
7.13386E-2,0E0
1.02531E-1,0E0
1.21601E-1,0E0
8.85810E-2,0E0
4.69169E-2,0E0
5.66978E-2,0E0
8.85238E-2,0E0
1.14395E-1,0E0
1.29287E-1,0E0
1.46797E-1,0E0
1.76895E-1,0E0
1.97914E-1,0E0
2.02018E-1,0E0
2.06581E-1,0E0
2.24632E-1,0E0
2.56149E-1,0E0
2.71957E-1,0E0
2.67852E-1,0E0
2.56012E-1,0E0
2.63397E-1,0E0
2.96661E-1,0E0
3.13049E-1,0E0
2.89657E-1,0E0
2.63061E-1,0E0
2.82806E-1,0E0
3.04687E-1,0E0
2.98065E-1,0E0
2.84164E-1,0E0
2.84317E-1,0E0
2.99606E-1,0E0
2.99484E-1,0E0
2.9599E-1,0E0
2.82043E-1,0E0
2.82348E-1,0E0
2.93930E-1,0E0
2.90405E-1,0E0
2.83721E-1,0E0
2.76611E-1,0E0
2.97164E-1,0E0
3.10363E-1,0E0
2.99362E-1,0E0
3.09768E-1,0E0
3.36975E-1,0E0
3.55087E-1,0E0
3.50189E-1,0E0
3.72085E-1,0E0
3.80767E-1,0E0
3.78234E-1,0E0
3.79180E-1,0E0
3.70452E-1,0E0
3.75671E-1,0E0
3.64242E-1,0E0
3.56308E-1,0E0
3.44436E-1,0E0
3.34564E-1,0E0
3.40606E-1,0E0
END

