CITIFILE A.01.00
#NA VERSION HP8753E.07.12
NAME FORMATTED
VAR FREQ MAG 201
DATA S[2,2] RI
SEG_LIST_BEGIN
SEG 30000 6000000000 201
SEG_LIST_END
BEGIN
4.23721E-1,0E0
3.21914E-1,0E0
4.54391E-1,0E0
5.79650E-1,0E0
7.11120E-1,0E0
7.70690E-1,0E0
8.41217E-1,0E0
8.73596E-1,0E0
8.55316E-1,0E0
7.93853E-1,0E0
9.50103E-1,0E0
9.60723E-1,0E0
8.84948E-1,0E0
8.79882E-1,0E0
8.84185E-1,0E0
8.15185E-1,0E0
6.29455E-1,0E0
6.37420E-1,0E0
5.30029E-1,0E0
4.94888E-1,0E0
2.93518E-1,0E0
1.12873E-1,0E0
3.39157E-1,0E0
4.47113E-1,0E0
5.09796E-1,0E0
5.44769E-1,0E0
6.41326E-1,0E0
6.53228E-1,0E0
6.99707E-1,0E0
7.44171E-1,0E0
6.95739E-1,0E0
7.18048E-1,0E0
7.24395E-1,0E0
7.20977E-1,0E0
7.10968E-1,0E0
7.38311E-1,0E0
7.35290E-1,0E0
7.05871E-1,0E0
7.42157E-1,0E0
7.80670E-1,0E0
7.69409E-1,0E0
7.63031E-1,0E0
8.46405E-1,0E0
9.03717E-1,0E0
8.37738E-1,0E0
8.32611E-1,0E0
8.35968E-1,0E0
8.35022E-1,0E0
8.24737E-1,0E0
8.22723E-1,0E0
7.96356E-1,0E0
7.54211E-1,0E0
8.01605E-1,0E0
8.25531E-1,0E0
7.87963E-1,0E0
7.32849E-1,0E0
7.43957E-1,0E0
7.54211E-1,0E0
7.24884E-1,0E0
7.0401E-1,0E0
6.53228E-1,0E0
5.67413E-1,0E0
4.87258E-1,0E0
4.74487E-1,0E0
4.44274E-1,0E0
4.23095E-1,0E0
3.99871E-1,0E0
4.99603E-1,0E0
6.31012E-1,0E0
6.64794E-1,0E0
6.83837E-1,0E0
6.93573E-1,0E0
6.98944E-1,0E0
6.85882E-1,0E0
7.08252E-1,0E0
7.08038E-1,0E0
6.94061E-1,0E0
6.99310E-1,0E0
7.58972E-1,0E0
7.85614E-1,0E0
7.45910E-1,0E0
7.57782E-1,0E0
7.78259E-1,0E0
8.20770E-1,0E0
8.24005E-1,0E0
8.28613E-1,0E0
8.18573E-1,0E0
8.00109E-1,0E0
8.14453E-1,0E0
8.31970E-1,0E0
7.61810E-1,0E0
6.85577E-1,0E0
6.50726E-1,0E0
6.07482E-1,0E0
5.14434E-1,0E0
4.43786E-1,0E0
3.78402E-1,0E0
3.53927E-1,0E0
3.41262E-1,0E0
3.39187E-1,0E0
3.2547E-1,0E0
3.19656E-1,0E0
4.57595E-1,0E0
5.36560E-1,0E0
5.87921E-1,0E0
5.64453E-1,0E0
5.94146E-1,0E0
6.08581E-1,0E0
6.47216E-1,0E0
6.39526E-1,0E0
6.17492E-1,0E0
6.27929E-1,0E0
6.49353E-1,0E0
6.64367E-1,0E0
6.43859E-1,0E0
6.37512E-1,0E0
6.27502E-1,0E0
6.34613E-1,0E0
6.25244E-1,0E0
5.92285E-1,0E0
5.69488E-1,0E0
5.31372E-1,0E0
5.09429E-1,0E0
4.67010E-1,0E0
4.41452E-1,0E0
4.25643E-1,0E0
4.30389E-1,0E0
4.28985E-1,0E0
4.37835E-1,0E0
4.38842E-1,0E0
4.51339E-1,0E0
4.87091E-1,0E0
5.11077E-1,0E0
5.28472E-1,0E0
5.45959E-1,0E0
6.10351E-1,0E0
6.21551E-1,0E0
6.26983E-1,0E0
6.73889E-1,0E0
7.30804E-1,0E0
7.52258E-1,0E0
7.43286E-1,0E0
7.58209E-1,0E0
7.71087E-1,0E0
7.51159E-1,0E0
7.03674E-1,0E0
6.38092E-1,0E0
5.62194E-1,0E0
5.82824E-1,0E0
6.91162E-1,0E0
7.27783E-1,0E0
7.49847E-1,0E0
7.24243E-1,0E0
7.55401E-1,0E0
7.59338E-1,0E0
7.27600E-1,0E0
7.10418E-1,0E0
7.16156E-1,0E0
7.09960E-1,0E0
6.80877E-1,0E0
7.18231E-1,0E0
6.99096E-1,0E0
6.77154E-1,0E0
6.60339E-1,0E0
6.75933E-1,0E0
7.00744E-1,0E0
6.43981E-1,0E0
6.22100E-1,0E0
6.26403E-1,0E0
6.08184E-1,0E0
5.89965E-1,0E0
5.64697E-1,0E0
5.55694E-1,0E0
5.50170E-1,0E0
5.73669E-1,0E0
5.52276E-1,0E0
5.17639E-1,0E0
4.92248E-1,0E0
4.98397E-1,0E0
5.28961E-1,0E0
4.91027E-1,0E0
4.43405E-1,0E0
4.34188E-1,0E0
4.44000E-1,0E0
4.24194E-1,0E0
3.80584E-1,0E0
3.61984E-1,0E0
3.46633E-1,0E0
3.17398E-1,0E0
2.73361E-1,0E0
2.36846E-1,0E0
2.48207E-1,0E0
2.64022E-1,0E0
2.28050E-1,0E0
1.51237E-1,0E0
1.49513E-1,0E0
2.13249E-1,0E0
2.19574E-1,0E0
1.58920E-1,0E0
1.07349E-1,0E0
1.63520E-1,0E0
END

