CITIFILE A.01.00
#NA VERSION HP8753E.07.12
NAME FORMATTED
VAR FREQ MAG 201
DATA S[1,2] RI
SEG_LIST_BEGIN
SEG 30000 6000000000 201
SEG_LIST_END
BEGIN
6.19751E-1,0E0
7.59491E-1,0E0
6.94305E-1,0E0
6.05926E-1,0E0
5.46997E-1,0E0
4.51126E-1,0E0
4.16793E-1,0E0
3.81805E-1,0E0
3.36486E-1,0E0
1.54960E-1,0E0
1.30844E-1,0E0
1.10343E-1,0E0
7.86628E-2,0E0
1.35009E-1,0E0
1.37718E-1,0E0
1.31767E-1,0E0
1.29310E-1,0E0
1.59751E-1,0E0
1.83898E-1,0E0
1.97052E-1,0E0
2.97302E-1,0E0
3.69537E-1,0E0
3.92471E-1,0E0
3.88122E-1,0E0
3.80111E-1,0E0
3.93920E-1,0E0
4.14596E-1,0E0
3.96804E-1,0E0
4.23736E-1,0E0
4.64843E-1,0E0
4.16931E-1,0E0
4.08798E-1,0E0
4.20822E-1,0E0
4.57183E-1,0E0
4.65621E-1,0E0
4.51004E-1,0E0
4.47311E-1,0E0
4.48867E-1,0E0
4.43435E-1,0E0
4.12506E-1,0E0
3.55896E-1,0E0
2.74581E-1,0E0
1.97586E-1,0E0
1.49086E-1,0E0
1.67976E-1,0E0
2.14080E-1,0E0
2.69195E-1,0E0
2.93960E-1,0E0
3.27621E-1,0E0
3.71887E-1,0E0
3.65707E-1,0E0
3.33511E-1,0E0
3.55316E-1,0E0
3.74694E-1,0E0
3.52462E-1,0E0
3.20129E-1,0E0
3.14666E-1,0E0
2.94525E-1,0E0
2.64343E-1,0E0
2.45803E-1,0E0
2.15972E-1,0E0
1.97532E-1,0E0
2.59964E-1,0E0
3.58017E-1,0E0
3.99063E-1,0E0
3.83789E-1,0E0
3.38851E-1,0E0
2.99087E-1,0E0
3.04962E-1,0E0
2.75390E-1,0E0
2.56912E-1,0E0
2.44834E-1,0E0
2.43820E-1,0E0
2.55096E-1,0E0
2.70233E-1,0E0
2.65762E-1,0E0
2.48725E-1,0E0
2.42965E-1,0E0
2.67944E-1,0E0
2.68463E-1,0E0
2.26776E-1,0E0
2.08274E-1,0E0
2.0121E-1,0E0
1.92634E-1,0E0
1.60728E-1,0E0
1.19594E-1,0E0
7.92579E-2,0E0
5.05981E-2,0E0
6.49261E-2,0E0
1.10675E-1,0E0
1.42936E-1,0E0
1.75582E-1,0E0
2.42218E-1,0E0
3.27270E-1,0E0
3.67065E-1,0E0
3.97140E-1,0E0
4.09210E-1,0E0
4.49981E-1,0E0
4.80056E-1,0E0
4.81552E-1,0E0
4.44686E-1,0E0
3.84597E-1,0E0
3.74710E-1,0E0
3.80233E-1,0E0
4.17373E-1,0E0
4.07074E-1,0E0
3.81408E-1,0E0
3.64669E-1,0E0
3.99795E-1,0E0
4.13665E-1,0E0
3.91265E-1,0E0
3.68591E-1,0E0
3.63266E-1,0E0
3.76693E-1,0E0
3.86428E-1,0E0
3.95004E-1,0E0
3.59436E-1,0E0
3.45230E-1,0E0
3.62701E-1,0E0
3.79272E-1,0E0
3.62045E-1,0E0
3.22021E-1,0E0
3.15475E-1,0E0
3.15567E-1,0E0
3.14331E-1,0E0
2.94769E-1,0E0
2.90329E-1,0E0
2.85171E-1,0E0
2.95944E-1,0E0
3.13232E-1,0E0
2.99438E-1,0E0
2.71789E-1,0E0
2.48252E-1,0E0
2.68402E-1,0E0
2.76367E-1,0E0
2.63702E-1,0E0
2.23587E-1,0E0
1.92985E-1,0E0
1.74377E-1,0E0
1.51229E-1,0E0
1.13048E-1,0E0
6.80503E-2,0E0
3.40156E-2,0E0
2.54201E-2,0E0
4.49562E-2,0E0
6.94046E-2,0E0
1.00124E-1,0E0
1.21166E-1,0E0
8.25614E-2,0E0
4.53872E-2,0E0
5.72834E-2,0E0
8.84437E-2,0E0
1.07093E-1,0E0
1.27929E-1,0E0
1.48971E-1,0E0
1.67678E-1,0E0
1.88751E-1,0E0
2.02537E-1,0E0
2.01774E-1,0E0
2.03193E-1,0E0
2.50534E-1,0E0
2.69714E-1,0E0
2.54241E-1,0E0
2.41828E-1,0E0
2.62725E-1,0E0
3.02337E-1,0E0
2.91915E-1,0E0
2.78244E-1,0E0
2.70858E-1,0E0
2.72308E-1,0E0
2.89505E-1,0E0
2.93212E-1,0E0
2.80715E-1,0E0
2.65075E-1,0E0
2.86300E-1,0E0
2.94082E-1,0E0
2.85507E-1,0E0
2.71286E-1,0E0
2.75558E-1,0E0
2.96402E-1,0E0
2.82135E-1,0E0
2.79266E-1,0E0
2.82989E-1,0E0
2.97164E-1,0E0
3.06442E-1,0E0
3.05374E-1,0E0
3.16818E-1,0E0
3.30429E-1,0E0
3.53515E-1,0E0
3.58306E-1,0E0
3.59619E-1,0E0
3.72711E-1,0E0
3.74191E-1,0E0
3.77914E-1,0E0
3.59024E-1,0E0
3.61511E-1,0E0
3.72009E-1,0E0
3.49090E-1,0E0
3.30413E-1,0E0
3.32428E-1,0E0
3.43978E-1,0E0
END

