CITIFILE A.01.00
#NA VERSION HP8753E.07.12
NAME FORMATTED
VAR FREQ MAG 201
DATA S[1,1] RI
SEG_LIST_BEGIN
SEG 30000 6000000000 201
SEG_LIST_END
BEGIN
4.22210E-1,0E0
3.20312E-1,0E0
4.49249E-1,0E0
5.69885E-1,0E0
7.06329E-1,0E0
7.62847E-1,0E0
8.22784E-1,0E0
8.51623E-1,0E0
8.13446E-1,0E0
6.64459E-1,0E0
8.78814E-1,0E0
8.34289E-1,0E0
5.79254E-1,0E0
1.18167E-1,0E0
6.29547E-1,0E0
8.34045E-1,0E0
8.25012E-1,0E0
8.32672E-1,0E0
8.29437E-1,0E0
8.37585E-1,0E0
7.87719E-1,0E0
7.50152E-1,0E0
7.45483E-1,0E0
7.25372E-1,0E0
7.72460E-1,0E0
7.71545E-1,0E0
7.57415E-1,0E0
7.35473E-1,0E0
7.59491E-1,0E0
7.70111E-1,0E0
7.05047E-1,0E0
7.04406E-1,0E0
7.00714E-1,0E0
6.63055E-1,0E0
6.16302E-1,0E0
6.13922E-1,0E0
5.83801E-1,0E0
5.29052E-1,0E0
4.78546E-1,0E0
4.17511E-1,0E0
3.40698E-1,0E0
2.93533E-1,0E0
2.80838E-1,0E0
3.77914E-1,0E0
4.56970E-1,0E0
5.43121E-1,0E0
6.02966E-1,0E0
6.38214E-1,0E0
6.40441E-1,0E0
6.75933E-1,0E0
6.97631E-1,0E0
7.01446E-1,0E0
6.73645E-1,0E0
7.23999E-1,0E0
7.94982E-1,0E0
7.53845E-1,0E0
7.35443E-1,0E0
7.56469E-1,0E0
8.12042E-1,0E0
7.64129E-1,0E0
7.29095E-1,0E0
6.67266E-1,0E0
5.01220E-1,0E0
2.43942E-1,0E0
5.08361E-1,0E0
6.15692E-1,0E0
5.79498E-1,0E0
6.42852E-1,0E0
7.17376E-1,0E0
7.06573E-1,0E0
6.26861E-1,0E0
5.81268E-1,0E0
5.98449E-1,0E0
5.52215E-1,0E0
5.22522E-1,0E0
4.83902E-1,0E0
5.20935E-1,0E0
5.39062E-1,0E0
5.85449E-1,0E0
6.86615E-1,0E0
6.97723E-1,0E0
6.84936E-1,0E0
6.75476E-1,0E0
7.71087E-1,0E0
7.62481E-1,0E0
7.15118E-1,0E0
6.76361E-1,0E0
6.79779E-1,0E0
7.06237E-1,0E0
6.90368E-1,0E0
6.74835E-1,0E0
5.93566E-1,0E0
5.55511E-1,0E0
5.33630E-1,0E0
5.02014E-1,0E0
4.25018E-1,0E0
3.68713E-1,0E0
3.62930E-1,0E0
3.94363E-1,0E0
4.01748E-1,0E0
4.30221E-1,0E0
4.72366E-1,0E0
4.82299E-1,0E0
4.20288E-1,0E0
4.09103E-1,0E0
5.05523E-1,0E0
5.39978E-1,0E0
5.45959E-1,0E0
5.66284E-1,0E0
6.00647E-1,0E0
5.91125E-1,0E0
5.74615E-1,0E0
5.97900E-1,0E0
6.16729E-1,0E0
6.0849E-1,0E0
5.96679E-1,0E0
5.95855E-1,0E0
6.02478E-1,0E0
6.06689E-1,0E0
6.11267E-1,0E0
6.08734E-1,0E0
5.99823E-1,0E0
6.01928E-1,0E0
6.39068E-1,0E0
6.28997E-1,0E0
6.10473E-1,0E0
6.12396E-1,0E0
6.25E-1,0E0
6.41662E-1,0E0
6.23016E-1,0E0
5.79772E-1,0E0
5.64514E-1,0E0
5.57952E-1,0E0
5.72906E-1,0E0
5.46905E-1,0E0
5.23651E-1,0E0
4.91317E-1,0E0
4.69177E-1,0E0
4.32098E-1,0E0
3.90396E-1,0E0
3.82598E-1,0E0
3.82659E-1,0E0
3.87283E-1,0E0
3.64791E-1,0E0
3.60107E-1,0E0
3.96438E-1,0E0
3.85513E-1,0E0
2.7742E-1,0E0
1.87629E-1,0E0
1.96014E-1,0E0
1.83113E-1,0E0
1.15593E-1,0E0
7.51228E-2,0E0
1.27540E-1,0E0
1.68693E-1,0E0
1.55830E-1,0E0
1.11156E-1,0E0
1.26190E-1,0E0
1.90902E-1,0E0
2.15522E-1,0E0
1.91032E-1,0E0
1.58706E-1,0E0
1.97258E-1,0E0
2.43331E-1,0E0
2.52227E-1,0E0
2.22374E-1,0E0
1.96189E-1,0E0
2.28675E-1,0E0
2.70202E-1,0E0
2.78396E-1,0E0
2.45765E-1,0E0
2.32482E-1,0E0
2.69134E-1,0E0
3.08471E-1,0E0
3.00766E-1,0E0
2.70721E-1,0E0
2.88482E-1,0E0
3.24798E-1,0E0
3.41644E-1,0E0
3.35891E-1,0E0
3.26538E-1,0E0
3.30673E-1,0E0
3.46389E-1,0E0
3.62411E-1,0E0
3.60702E-1,0E0
3.42437E-1,0E0
3.67675E-1,0E0
3.89343E-1,0E0
3.69674E-1,0E0
3.53546E-1,0E0
3.74343E-1,0E0
3.96011E-1,0E0
4.02786E-1,0E0
3.86886E-1,0E0
3.83819E-1,0E0
4.39590E-1,0E0
4.59701E-1,0E0
4.49768E-1,0E0
4.18060E-1,0E0
4.32281E-1,0E0
5.08392E-1,0E0
END

