CITIFILE A.01.00
#NA VERSION HP8753E.07.12
NAME FORMATTED
VAR FREQ MAG 201
DATA S[1,1] RI
SEG_LIST_BEGIN
SEG 30000 6000000000 201
SEG_LIST_END
BEGIN
-3.47168E0,0E0
-1.82922E0,0E0
-3.36757E1,0E0
-6.93593E1,0E0
-1.14738E2,0E0
-1.58125E2,0E0
1.64E2,0E0
1.18414E2,0E0
7.05625E1,0E0
4.74550E1,0E0
1.10687E0,0E0
-5.14355E1,0E0
-1.16144E2,0E0
1.68730E1,0E0
-9.22226E1,0E0
-1.47648E2,0E0
1.64968E2,0E0
1.24371E2,0E0
8.35273E1,0E0
3.93457E1,0E0
2.32214E0,0E0
-3.50253E1,0E0
-6.93476E1,0E0
-1.06625E2,0E0
-1.44992E2,0E0
1.75468E2,0E0
1.36867E2,0E0
1.02015E2,0E0
6.18496E1,0E0
2E1,0E0
-2.11289E1,0E0
-5.66210E1,0E0
-9.68788E1,0E0
-1.40609E2,0E0
-1.78656E2,0E0
1.3925E2,0E0
9.67109E1,0E0
5.10546E1,0E0
4.25976E0,0E0
-5.06347E1,0E0
-1.13570E2,0E0
1.69375E2,0E0
7.74218E1,0E0
7.08618E-1,0E0
-5.96132E1,0E0
-1.09492E2,0E0
-1.61617E2,0E0
1.50023E2,0E0
1.05281E2,0E0
6.54179E1,0E0
2.33740E1,0E0
-2.01660E1,0E0
-5.92695E1,0E0
-9.76406E1,0E0
-1.39281E2,0E0
1.76945E2,0E0
1.39101E2,0E0
9.95429E1,0E0
5.57402E1,0E0
1.30815E1,0E0
-2.88173E1,0E0
-7.49218E1,0E0
-1.23918E2,0E0
-1.31031E2,0E0
-1.40867E2,0E0
1.71304E2,0E0
1.32078E2,0E0
9.59101E1,0E0
5.34902E1,0E0
8.81494E0,0E0
-2.94824E1,0E0
-6.36738E1,0E0
-1.02082E2,0E0
-1.40445E2,0E0
-1.73625E2,0E0
1.59359E2,0E0
1.28234E2,0E0
9.32499E1,0E0
5.88906E1,0E0
2.20752E1,0E0
-2.06152E1,0E0
-5.72031E1,0E0
-9.25820E1,0E0
-1.30992E2,0E0
-1.75781E2,0E0
1.46406E2,0E0
1.11992E2,0E0
7.56406E1,0E0
3.68535E1,0E0
-2.88256E0,0E0
-4.29687E1,0E0
-8.10156E1,0E0
-1.15476E2,0E0
-1.51210E2,0E0
1.68382E2,0E0
1.34804E2,0E0
1.07875E2,0E0
8.41484E1,0E0
5.23222E1,0E0
1.89951E1,0E0
-1.24531E1,0E0
-4.79296E1,0E0
-8.55703E1,0E0
-1.22496E2,0E0
-1.43921E2,0E0
-1.78875E2,0E0
1.44203E2,0E0
1.08902E2,0E0
7.54804E1,0E0
3.52929E1,0E0
-5.14721E0,0E0
-3.93945E1,0E0
-7.26640E1,0E0
-1.07414E2,0E0
-1.46257E2,0E0
1.76609E2,0E0
1.40078E2,0E0
1.07234E2,0E0
7.30546E1,0E0
3.57011E1,0E0
-3.23547E0,0E0
-4.08437E1,0E0
-7.25429E1,0E0
-1.08972E2,0E0
-1.47320E2,0E0
1.72421E2,0E0
1.35945E2,0E0
1.00671E2,0E0
6.34921E1,0E0
2.11181E1,0E0
-2.08554E1,0E0
-5.58085E1,0E0
-9.06718E1,0E0
-1.27617E2,0E0
-1.72648E2,0E0
1.44734E2,0E0
1.07867E2,0E0
7.41484E1,0E0
3.58906E1,0E0
-9.56103E0,0E0
-5.32187E1,0E0
-8.68437E1,0E0
-1.18308E2,0E0
-1.58765E2,0E0
1.45609E2,0E0
9.07343E1,0E0
3.97832E1,0E0
-1.23281E1,0E0
-7.92031E1,0E0
-1.48203E2,0E0
1.69140E2,0E0
1.26886E2,0E0
4.18906E1,0E0
-1.48095E1,0E0
-4.15234E1,0E0
-7.34414E1,0E0
-1.26914E2,0E0
1.68429E2,0E0
1.36343E2,0E0
1.08015E2,0E0
7.43046E1,0E0
1.57885E1,0E0
-3.77050E1,0E0
-6.87148E1,0E0
-9.68164E1,0E0
-1.35093E2,0E0
1.64703E2,0E0
1.17476E2,0E0
8.61953E1,0E0
5.63632E1,0E0
1.29663E1,0E0
-4.12070E1,0E0
-8.20820E1,0E0
-1.15539E2,0E0
-1.51257E2,0E0
1.63976E2,0E0
1.17113E2,0E0
7.69843E1,0E0
4.20332E1,0E0
5.43676E0,0E0
-3.97558E1,0E0
-8.32304E1,0E0
-1.17863E2,0E0
-1.50117E2,0E0
1.71968E2,0E0
1.30132E2,0E0
9.35586E1,0E0
5.46953E1,0E0
1.67177E1,0E0
-1.85605E1,0E0
-5.45214E1,0E0
-8.78867E1,0E0
-1.23476E2,0E0
-1.59765E2,0E0
1.62390E2,0E0
1.25867E2,0E0
9.00468E1,0E0
5.69589E1,0E0
2.18154E1,0E0
-2.05009E1,0E0
-5.93417E1,0E0
END

