CITIFILE A.01.00
#NA VERSION HP8753E.07.12
NAME FORMATTED
VAR FREQ MAG 201
DATA S[2,1] RI
SEG_LIST_BEGIN
SEG 30000 6000000000 201
SEG_LIST_END
BEGIN
1.77070E1,0E0
-4.96171E1,0E0
-9.82304E1,0E0
-1.47382E2,0E0
1.66960E2,0E0
1.225E2,0E0
8.44179E1,0E0
3.62421E1,0E0
-1.54443E1,0E0
-8.26484E1,0E0
-8.19062E1,0E0
-1.20320E2,0E0
-1.35718E2,0E0
-1.64789E2,0E0
1.37023E2,0E0
8.75390E1,0E0
3.83027E1,0E0
-8.60107E0,0E0
-6.17050E1,0E0
-1.13160E2,0E0
-1.60070E2,0E0
1.41718E2,0E0
8.04492E1,0E0
3.17363E1,0E0
-1.25537E1,0E0
-5.29160E1,0E0
-1.01394E2,0E0
-1.38851E2,0E0
-1.76898E2,0E0
1.38296E2,0E0
9.37812E1,0E0
5.97421E1,0E0
2.45605E1,0E0
-1.62714E1,0E0
-5.77539E1,0E0
-9.86484E1,0E0
-1.36515E2,0E0
-1.77148E2,0E0
1.39789E2,0E0
9.67499E1,0E0
5.40039E1,0E0
1.29404E1,0E0
-2.02197E1,0E0
-3.17285E1,0E0
-4.47753E1,0E0
-7.39453E1,0E0
-1.05402E2,0E0
-1.40906E2,0E0
1.77031E2,0E0
1.37257E2,0E0
9.90390E1,0E0
5.93378E1,0E0
2.22910E1,0E0
-1.36933E1,0E0
-5.34179E1,0E0
-9.56406E1,0E0
-1.29726E2,0E0
-1.62468E2,0E0
1.60093E2,0E0
1.23453E2,0E0
9.72890E1,0E0
7.94335E1,0E0
5.39414E1,0E0
1.50097E1,0E0
-3.10478E1,0E0
-7.61328E1,0E0
-1.22746E2,0E0
-1.53484E2,0E0
1.74218E2,0E0
1.34914E2,0E0
1.00277E2,0E0
7.03828E1,0E0
4.17695E1,0E0
5.36669E0,0E0
-3.15087E1,0E0
-6.72031E1,0E0
-1.03164E2,0E0
-1.37804E2,0E0
-1.73804E2,0E0
1.46945E2,0E0
1.04613E2,0E0
7.04687E1,0E0
3.78203E1,0E0
1.56689E0,0E0
-4.38730E1,0E0
-8.06406E1,0E0
-1.04207E2,0E0
-1.09878E2,0E0
-9.98789E1,0E0
-1.20742E2,0E0
-1.52289E2,0E0
1.74656E2,0E0
1.41218E2,0E0
1.02039E2,0E0
5.62167E1,0E0
1.27426E1,0E0
-2.77294E1,0E0
-6.51289E1,0E0
-1.08578E2,0E0
-1.53492E2,0E0
1.64945E2,0E0
1.29492E2,0E0
9.87265E1,0E0
6.34921E1,0E0
2.84209E1,0E0
-1.29545E1,0E0
-4.79277E1,0E0
-8.20039E1,0E0
-1.14175E2,0E0
-1.52968E2,0E0
1.65546E2,0E0
1.3075E2,0E0
9.83398E1,0E0
6.57031E1,0E0
2.72666E1,0E0
-1.22226E1,0E0
-4.99804E1,0E0
-8.12226E1,0E0
-1.16554E2,0E0
-1.55406E2,0E0
1.66273E2,0E0
1.28914E2,0E0
9.67070E1,0E0
6.10644E1,0E0
2.59326E1,0E0
-1.12050E1,0E0
-4.52207E1,0E0
-7.79101E1,0E0
-1.11660E2,0E0
-1.51609E2,0E0
1.65875E2,0E0
1.30195E2,0E0
9.68632E1,0E0
6.39277E1,0E0
2.17275E1,0E0
-2.15849E1,0E0
-6.37578E1,0E0
-1.01812E2,0E0
-1.39296E2,0E0
1.78742E2,0E0
1.35632E2,0E0
9.64023E1,0E0
7.87382E1,0E0
1.04535E2,0E0
1.01425E2,0E0
7.42539E1,0E0
3.48398E1,0E0
-1.88085E1,0E0
-7.20742E1,0E0
-9.03828E1,0E0
-7.94453E1,0E0
-1.05324E2,0E0
-1.42468E2,0E0
-1.78171E2,0E0
1.48921E2,0E0
1.12992E2,0E0
7.25039E1,0E0
3.37128E1,0E0
-6.13861E-1,0E0
-3.38535E1,0E0
-7.10976E1,0E0
-1.12562E2,0E0
-1.51898E2,0E0
1.73015E2,0E0
1.40984E2,0E0
1.06640E2,0E0
6.35585E1,0E0
2.35390E1,0E0
-8.73437E0,0E0
-3.94316E1,0E0
-7.73749E1,0E0
-1.17671E2,0E0
-1.52101E2,0E0
1.74968E2,0E0
1.40093E2,0E0
1.01835E2,0E0
6.49218E1,0E0
3.07519E1,0E0
-3.30285E0,0E0
-3.72617E1,0E0
-7.43085E1,0E0
-1.09171E2,0E0
-1.41062E2,0E0
-1.74164E2,0E0
1.49242E2,0E0
1.12828E2,0E0
8.19921E1,0E0
4.66835E1,0E0
7.28247E0,0E0
-2.85703E1,0E0
-6.48671E1,0E0
-1.03050E2,0E0
-1.42070E2,0E0
-1.79187E2,0E0
1.43789E2,0E0
1.06992E2,0E0
6.86054E1,0E0
3.12666E1,0E0
-4.55810E0,0E0
-4.13027E1,0E0
-7.75781E1,0E0
END

