CITIFILE A.01.00
#NA VERSION HP8753E.07.12
NAME FORMATTED
VAR FREQ MAG 201
DATA S[1,2] RI
SEG_LIST_BEGIN
SEG 30000 6000000000 201
SEG_LIST_END
BEGIN
1.74843E1,0E0
-5.07714E1,0E0
-1.00453E2,0E0
-1.50757E2,0E0
1.62695E2,0E0
1.17222E2,0E0
7.78906E1,0E0
2.85205E1,0E0
-2.42910E1,0E0
-9.10468E1,0E0
-9.30351E1,0E0
-1.32437E2,0E0
-1.49515E2,0E0
-1.77671E2,0E0
1.21121E2,0E0
7.06210E1,0E0
2.29687E1,0E0
-2.82343E1,0E0
-8.24609E1,0E0
-1.32359E2,0E0
1.76921E2,0E0
1.17613E2,0E0
5.76210E1,0E0
6.97753E0,0E0
-3.86132E1,0E0
-8.01171E1,0E0
-1.28796E2,0E0
-1.67414E2,0E0
1.52937E2,0E0
1.07132E2,0E0
6.27050E1,0E0
2.65507E1,0E0
-9.68457E0,0E0
-5.14667E1,0E0
-9.35E1,0E0
-1.36046E2,0E0
-1.75085E2,0E0
1.43304E2,0E0
9.97929E1,0E0
5.60136E1,0E0
9.45507E0,0E0
-2.95234E1,0E0
-6.27187E1,0E0
-7.82578E1,0E0
-9.24062E1,0E0
-1.17316E2,0E0
-1.54476E2,0E0
1.65492E2,0E0
1.30617E2,0E0
8.67812E1,0E0
4.30586E1,0E0
5.87622E0,0E0
-2.85634E1,0E0
-7.02617E1,0E0
-1.13855E2,0E0
-1.49132E2,0E0
1.72531E2,0E0
1.35242E2,0E0
9.87304E1,0E0
6.57929E1,0E0
3.35351E1,0E0
1.39868E1,0E0
-8.09863E0,0E0
-4.95097E1,0E0
-9.84531E1,0E0
-1.45585E2,0E0
1.71273E2,0E0
1.37601E2,0E0
1.01343E2,0E0
6.28749E1,0E0
2.90771E1,0E0
-3.17102E0,0E0
-3.66210E1,0E0
-6.87109E1,0E0
-1.07429E2,0E0
-1.45734E2,0E0
1.7575E2,0E0
1.43898E2,0E0
1.08242E2,0E0
6.14746E1,0E0
2.30351E1,0E0
-1.23696E1,0E0
-4.53886E1,0E0
-8.86054E1,0E0
-1.28328E2,0E0
-1.66968E2,0E0
1.65898E2,0E0
1.59929E2,0E0
1.71328E2,0E0
1.48492E2,0E0
1.11468E2,0E0
8.22929E1,0E0
4.86718E1,0E0
4.82983E0,0E0
-4.15253E1,0E0
-8.52890E1,0E0
-1.25199E2,0E0
-1.65968E2,0E0
1.49898E2,0E0
1.05082E2,0E0
6.16835E1,0E0
2.41572E1,0E0
-7.90625E0,0E0
-4.16523E1,0E0
-7.91015E1,0E0
-1.21734E2,0E0
-1.58546E2,0E0
1.69179E2,0E0
1.34132E2,0E0
9.26015E1,0E0
5.25605E1,0E0
1.75185E1,0E0
-1.72089E1,0E0
-5.27539E1,0E0
-8.97343E1,0E0
-1.31132E2,0E0
-1.69945E2,0E0
1.57421E2,0E0
1.22960E2,0E0
8.19257E1,0E0
4.01191E1,0E0
3.91247E0,0E0
-2.97070E1,0E0
-6.56992E1,0E0
-1.03543E2,0E0
-1.40257E2,0E0
-1.75468E2,0E0
1.49960E2,0E0
1.14968E2,0E0
7.49375E1,0E0
3.17255E1,0E0
-6.50537E0,0E0
-3.98535E1,0E0
-7.43554E1,0E0
-1.17812E2,0E0
-1.62109E2,0E0
1.55140E2,0E0
1.16859E2,0E0
7.87851E1,0E0
3.49316E1,0E0
-9.60644E0,0E0
-4.80449E1,0E0
-6.73749E1,0E0
-4.16367E1,0E0
-4.78046E1,0E0
-7.49414E1,0E0
-1.15562E2,0E0
-1.71351E2,0E0
1.33937E2,0E0
1.18609E2,0E0
1.26957E2,0E0
9.54374E1,0E0
6.12851E1,0E0
2.48945E1,0E0
-1.09892E1,0E0
-4.98027E1,0E0
-8.77656E1,0E0
-1.28E2,0E0
-1.68203E2,0E0
1.62562E2,0E0
1.24945E2,0E0
8.11523E1,0E0
3.82812E1,0E0
6.21118E0,0E0
-2.65419E1,0E0
-6.70468E1,0E0
-1.09347E2,0E0
-1.47734E2,0E0
1.78343E2,0E0
1.42226E2,0E0
1.07789E2,0E0
6.67656E1,0E0
2.84111E1,0E0
-4.01977E0,0E0
-3.84707E1,0E0
-7.72460E1,0E0
-1.16457E2,0E0
-1.49765E2,0E0
1.76171E2,0E0
1.39210E2,0E0
1.01640E2,0E0
6.65898E1,0E0
3.37832E1,0E0
-2.66015E0,0E0
-3.8875E1,0E0
-7.52460E1,0E0
-1.10910E2,0E0
-1.45382E2,0E0
1.74976E2,0E0
1.36796E2,0E0
9.85937E1,0E0
6.10976E1,0E0
2.23457E1,0E0
-1.80693E1,0E0
-5.53515E1,0E0
-9.15546E1,0E0
-1.31312E2,0E0
-1.71343E2,0E0
1.52703E2,0E0
1.17730E2,0E0
7.57890E1,0E0
END

