CITIFILE A.01.00
#NA VERSION HP8753E.07.12
NAME FORMATTED
VAR FREQ MAG 201
DATA S[2,2] RI
SEG_LIST_BEGIN
SEG 30000 6000000000 201
SEG_LIST_END
BEGIN
-3.35632E0,0E0
-1.40075E0,0E0
-3.32597E1,0E0
-7.11562E1,0E0
-1.15308E2,0E0
-1.58445E2,0E0
1.63835E2,0E0
1.19128E2,0E0
7.45898E1,0E0
4.30859E1,0E0
1.55590E0,0E0
-4.11562E1,0E0
-8.42851E1,0E0
-1.22593E2,0E0
-1.66734E2,0E0
1.45632E2,0E0
1.09890E2,0E0
7.13984E1,0E0
2.77002E1,0E0
-9.78369E0,0E0
-6.84062E1,0E0
-1.45380E1,0E0
-3.59765E1,0E0
-8.04687E1,0E0
-1.25648E2,0E0
-1.63093E2,0E0
1.56195E2,0E0
1.18121E2,0E0
7.87968E1,0E0
3.54199E1,0E0
-5.09375E0,0E0
-4.12636E1,0E0
-7.88593E1,0E0
-1.19128E2,0E0
-1.55226E2,0E0
1.63992E2,0E0
1.25339E2,0E0
9.02812E1,0E0
5.66093E1,0E0
1.79453E1,0E0
-2.46005E1,0E0
-5.80703E1,0E0
-9.55937E1,0E0
-1.36382E2,0E0
-1.78843E2,0E0
1.43617E2,0E0
1.04078E2,0E0
6.47656E1,0E0
2.96699E1,0E0
-1.00268E1,0E0
-4.89335E1,0E0
-8.65468E1,0E0
-1.21371E2,0E0
-1.61015E2,0E0
1.58312E2,0E0
1.23406E2,0E0
8.58242E1,0E0
4.82832E1,0E0
8.80517E0,0E0
-2.77734E1,0E0
-6.86757E1,0E0
-1.08531E2,0E0
-1.38656E2,0E0
-1.67609E2,0E0
1.62648E2,0E0
1.34757E2,0E0
1.08910E2,0E0
8.42265E1,0E0
4.44511E1,0E0
4.40673E0,0E0
-3.28769E1,0E0
-6.96289E1,0E0
-1.09546E2,0E0
-1.44578E2,0E0
1.78828E2,0E0
1.44625E2,0E0
1.09128E2,0E0
7.56210E1,0E0
3.97460E1,0E0
-2.45275E0,0E0
-3.65859E1,0E0
-7.11835E1,0E0
-1.04101E2,0E0
-1.45585E2,0E0
1.76679E2,0E0
1.38234E2,0E0
1.03246E2,0E0
6.65E1,0E0
2.76025E1,0E0
-1.34902E1,0E0
-5.64824E1,0E0
-8.85195E1,0E0
-1.22878E2,0E0
-1.62773E2,0E0
1.56203E2,0E0
1.22105E2,0E0
9.76601E1,0E0
7.62343E1,0E0
5.11992E1,0E0
1.89580E1,0E0
-1.42753E1,0E0
-3.27070E1,0E0
-5.41464E1,0E0
-8.91484E1,0E0
-1.28929E2,0E0
-1.69593E2,0E0
1.54398E2,0E0
1.21664E2,0E0
8.82148E1,0E0
5.08457E1,0E0
1.40717E1,0E0
-2.15195E1,0E0
-5.60253E1,0E0
-8.92890E1,0E0
-1.23519E2,0E0
-1.60976E2,0E0
1.61367E2,0E0
1.26406E2,0E0
9.25663E1,0E0
5.80449E1,0E0
2.22207E1,0E0
-1.49360E1,0E0
-4.99687E1,0E0
-8.19765E1,0E0
-1.11066E2,0E0
-1.42031E2,0E0
-1.73929E2,0E0
1.55906E2,0E0
1.26457E2,0E0
9.49375E1,0E0
6.16289E1,0E0
2.80292E1,0E0
-4.75439E0,0E0
-3.49980E1,0E0
-6.59804E1,0E0
-1.04128E2,0E0
-1.45953E2,0E0
-1.79203E2,0E0
1.52234E2,0E0
1.17460E2,0E0
7.46718E1,0E0
3.31230E1,0E0
-4.04296E0,0E0
-3.60214E1,0E0
-7.32460E1,0E0
-1.11953E2,0E0
-1.55851E2,0E0
1.73335E2,0E0
1.54195E2,0E0
1.26648E2,0E0
8.91484E1,0E0
4.33144E1,0E0
6.15771E0,0E0
-2.68437E1,0E0
-5.80273E1,0E0
-9.50507E1,0E0
-1.34109E2,0E0
-1.72828E2,0E0
1.52812E2,0E0
1.27019E2,0E0
9.20273E1,0E0
5.00898E1,0E0
8.62548E0,0E0
-2.12773E1,0E0
-4.88535E1,0E0
-8.43671E1,0E0
-1.26160E2,0E0
-1.66812E2,0E0
1.60828E2,0E0
1.29546E2,0E0
9.97734E1,0E0
5.91972E1,0E0
1.76972E1,0E0
-1.56777E1,0E0
-4.68359E1,0E0
-8.13906E1,0E0
-1.22175E2,0E0
-1.60875E2,0E0
1.63593E2,0E0
1.28835E2,0E0
9.00742E1,0E0
4.97890E1,0E0
1.26010E1,0E0
-2.52578E1,0E0
-6.33476E1,0E0
-1.04949E2,0E0
-1.46867E2,0E0
1.75562E2,0E0
1.39687E2,0E0
1.01007E2,0E0
5.50703E1,0E0
1.61972E1,0E0
-1.72666E1,0E0
-5.27832E1,0E0
-9.47343E1,0E0
-1.46546E2,0E0
1.69687E2,0E0
1.37140E2,0E0
1.10058E2,0E0
6.00332E1,0E0
-1.01088E1,0E0
END

