CITIFILE A.01.00
#NA VERSION HP8753E.07.12
NAME FORMATTED
VAR FREQ MAG 201
DATA S[1,1] RI
SEG_LIST_BEGIN
SEG 30000 6000000000 201
SEG_LIST_END
BEGIN
9.91973E-1,0E0
9.20715E-1,0E0
8.61450E-1,0E0
8.21258E-1,0E0
8.10577E-1,0E0
7.03002E-1,0E0
6.04248E-1,0E0
3.96026E-1,0E0
8.83102E-2,0E0
3.85986E-1,0E0
5.37170E-1,0E0
6.41784E-1,0E0
6.30767E-1,0E0
4.55474E-1,0E0
1.97586E-1,0E0
5.91888E-1,0E0
6.23474E-1,0E0
6.82251E-1,0E0
7.62542E-1,0E0
8.50341E-1,0E0
8.60656E-1,0E0
8.94073E-1,0E0
8.92883E-1,0E0
8.48724E-1,0E0
8.80127E-1,0E0
8.78936E-1,0E0
8.40606E-1,0E0
7.88177E-1,0E0
8.05877E-1,0E0
8.28308E-1,0E0
7.47345E-1,0E0
7.50244E-1,0E0
7.53997E-1,0E0
7.36938E-1,0E0
6.91711E-1,0E0
6.80267E-1,0E0
6.60095E-1,0E0
5.93322E-1,0E0
5.30304E-1,0E0
4.25750E-1,0E0
3.21044E-1,0E0
3.76449E-1,0E0
4.84512E-1,0E0
6.00128E-1,0E0
7.10571E-1,0E0
6.98486E-1,0E0
7.16796E-1,0E0
7.50335E-1,0E0
7.44567E-1,0E0
7.75299E-1,0E0
7.72338E-1,0E0
7.51983E-1,0E0
7.22991E-1,0E0
7.72613E-1,0E0
8.12957E-1,0E0
7.36816E-1,0E0
7.22717E-1,0E0
7.31567E-1,0E0
7.23815E-1,0E0
6.35833E-1,0E0
5.55694E-1,0E0
3.95187E-1,0E0
1.51275E-1,0E0
2.15278E-1,0E0
4.48562E-1,0E0
5.01068E-1,0E0
5.28259E-1,0E0
5.72570E-1,0E0
6.11480E-1,0E0
6.15234E-1,0E0
6.02325E-1,0E0
6.07055E-1,0E0
6.85943E-1,0E0
7.02789E-1,0E0
7.18780E-1,0E0
7.26959E-1,0E0
7.36816E-1,0E0
7.09472E-1,0E0
7.27569E-1,0E0
7.95166E-1,0E0
7.26470E-1,0E0
6.89300E-1,0E0
6.63147E-1,0E0
7.21435E-1,0E0
6.82342E-1,0E0
6.41906E-1,0E0
6.20147E-1,0E0
6.18255E-1,0E0
6.39587E-1,0E0
6.22833E-1,0E0
5.86486E-1,0E0
4.84283E-1,0E0
3.93768E-1,0E0
3.39752E-1,0E0
3.30627E-1,0E0
3.49227E-1,0E0
3.87725E-1,0E0
4.37011E-1,0E0
4.97131E-1,0E0
5.08941E-1,0E0
5.05615E-1,0E0
5.07141E-1,0E0
4.62966E-1,0E0
3.41507E-1,0E0
3.44207E-1,0E0
4.87472E-1,0E0
5.37841E-1,0E0
5.4245E-1,0E0
5.61248E-1,0E0
5.94421E-1,0E0
5.79620E-1,0E0
5.60943E-1,0E0
5.79559E-1,0E0
5.97442E-1,0E0
5.87097E-1,0E0
5.71838E-1,0E0
5.69030E-1,0E0
5.77575E-1,0E0
5.78826E-1,0E0
5.80932E-1,0E0
5.76416E-1,0E0
5.67291E-1,0E0
5.70556E-1,0E0
5.94207E-1,0E0
5.72479E-1,0E0
5.41351E-1,0E0
5.40893E-1,0E0
5.52032E-1,0E0
5.63476E-1,0E0
5.28106E-1,0E0
4.79156E-1,0E0
4.70382E-1,0E0
4.75677E-1,0E0
5.04943E-1,0E0
4.84848E-1,0E0
4.68460E-1,0E0
4.36508E-1,0E0
3.98819E-1,0E0
3.35098E-1,0E0
2.76351E-1,0E0
2.54745E-1,0E0
2.34664E-1,0E0
2.21900E-1,0E0
2.08038E-1,0E0
2.39097E-1,0E0
3.24585E-1,0E0
3.69110E-1,0E0
3.11523E-1,0E0
2.77130E-1,0E0
3.26950E-1,0E0
3.39172E-1,0E0
2.90039E-1,0E0
2.66128E-1,0E0
2.98858E-1,0E0
3.15216E-1,0E0
2.86880E-1,0E0
2.39074E-1,0E0
2.45010E-1,0E0
2.88833E-1,0E0
3.02002E-1,0E0
2.55065E-1,0E0
2.12318E-1,0E0
2.24693E-1,0E0
2.60757E-1,0E0
2.58422E-1,0E0
2.24563E-1,0E0
1.87240E-1,0E0
2.18757E-1,0E0
2.52685E-1,0E0
2.65914E-1,0E0
2.13905E-1,0E0
1.72905E-1,0E0
1.99058E-1,0E0
2.43751E-1,0E0
2.48161E-1,0E0
1.99432E-1,0E0
1.93603E-1,0E0
2.27920E-1,0E0
2.57324E-1,0E0
2.62146E-1,0E0
2.48268E-1,0E0
2.55905E-1,0E0
2.91503E-1,0E0
3.37509E-1,0E0
3.50997E-1,0E0
3.29589E-1,0E0
3.46740E-1,0E0
3.72055E-1,0E0
3.70437E-1,0E0
3.52371E-1,0E0
3.82263E-1,0E0
4.13024E-1,0E0
4.19250E-1,0E0
4.0979E-1,0E0
4.08813E-1,0E0
4.60144E-1,0E0
4.86190E-1,0E0
4.79431E-1,0E0
4.44015E-1,0E0
4.48883E-1,0E0
5.27465E-1,0E0
END

