CITIFILE A.01.00
#NA VERSION HP8753E.07.12
NAME FORMATTED
VAR FREQ MAG 201
DATA S[2,2] RI
SEG_LIST_BEGIN
SEG 30000 6000000000 201
SEG_LIST_END
BEGIN
8.12548E0,0E0
-4.02675E1,0E0
-7.77890E1,0E0
-1.21671E2,0E0
-1.61109E2,0E0
1.59570E2,0E0
1.20023E2,0E0
7.65742E1,0E0
3.38828E1,0E0
9.03759E0,0E0
1.09492E1,0E0
-2.88916E1,0E0
-7.48085E1,0E0
-1.17171E2,0E0
-1.46265E2,0E0
1.71101E2,0E0
1.28085E2,0E0
8.23984E1,0E0
3.69531E1,0E0
-8.99121E0,0E0
-5.74511E1,0E0
-1.17175E2,0E0
1.67710E2,0E0
7.58124E1,0E0
-5.65937E1,0E0
-1.15960E2,0E0
-1.62625E2,0E0
1.48609E2,0E0
1.04453E2,0E0
5.76718E1,0E0
1.09780E1,0E0
-2.69033E1,0E0
-6.56093E1,0E0
-1.07746E2,0E0
-1.45742E2,0E0
1.73203E2,0E0
1.33632E2,0E0
9.65898E1,0E0
6.34570E1,0E0
2.53847E1,0E0
-1.68085E1,0E0
-5.10898E1,0E0
-8.94101E1,0E0
-1.30101E2,0E0
-1.72367E2,0E0
1.50734E2,0E0
1.11609E2,0E0
7.21210E1,0E0
3.72617E1,0E0
-1.83062E0,0E0
-4.11347E1,0E0
-7.94101E1,0E0
-1.13437E2,0E0
-1.52898E2,0E0
1.66429E2,0E0
1.32015E2,0E0
9.49648E1,0E0
5.67480E1,0E0
1.67246E1,0E0
-1.84550E1,0E0
-5.89746E1,0E0
-9.96328E1,0E0
-1.34351E2,0E0
-1.68093E2,0E0
1.59554E2,0E0
1.21996E2,0E0
8.49453E1,0E0
4.19316E1,0E0
1.43096E0,0E0
-2.97812E1,0E0
-5.71132E1,0E0
-8.81601E1,0E0
-1.14937E2,0E0
-1.39757E2,0E0
-1.70804E2,0E0
1.55359E2,0E0
1.17824E2,0E0
8.3125E1,0E0
4.63984E1,0E0
3.15991E0,0E0
-3.32050E1,0E0
-6.88242E1,0E0
-1.02566E2,0E0
-1.45078E2,0E0
1.76578E2,0E0
1.37648E2,0E0
1.02308E2,0E0
6.52851E1,0E0
2.59765E1,0E0
-1.60078E1,0E0
-5.98457E1,0E0
-9.35781E1,0E0
-1.27062E2,0E0
-1.55093E2,0E0
-1.77929E2,0E0
1.56101E2,0E0
1.27878E2,0E0
9.60859E1,0E0
5.72714E1,0E0
1.62714E1,0E0
-2.39414E1,0E0
-5.53398E1,0E0
-7.93125E1,0E0
-1.10781E2,0E0
-1.51414E2,0E0
1.67632E2,0E0
1.32703E2,0E0
1.03773E2,0E0
7.75624E1,0E0
4.92714E1,0E0
1.96347E1,0E0
-1.27431E1,0E0
-4.65742E1,0E0
-7.88164E1,0E0
-1.12445E2,0E0
-1.49843E2,0E0
1.71562E2,0E0
1.36898E2,0E0
1.03773E2,0E0
6.96562E1,0E0
3.56699E1,0E0
-1.80316E0,0E0
-3.83535E1,0E0
-7.31367E1,0E0
-1.05316E2,0E0
-1.39421E2,0E0
-1.75992E2,0E0
1.50953E2,0E0
1.18777E2,0E0
8.59726E1,0E0
5.18359E1,0E0
1.94189E1,0E0
-1.01391E1,0E0
-3.70546E1,0E0
-6.66249E1,0E0
-1.03437E2,0E0
-1.44710E2,0E0
-1.77976E2,0E0
1.53617E2,0E0
1.18539E2,0E0
7.56835E1,0E0
3.35644E1,0E0
-4.01831E0,0E0
-3.60996E1,0E0
-7.34101E1,0E0
-1.11765E2,0E0
-1.55453E2,0E0
1.74484E2,0E0
1.54742E2,0E0
1.26253E2,0E0
8.85390E1,0E0
4.26679E1,0E0
5.59472E0,0E0
-2.73330E1,0E0
-5.85371E1,0E0
-9.54570E1,0E0
-1.33867E2,0E0
-1.71671E2,0E0
1.54031E2,0E0
1.28257E2,0E0
9.39765E1,0E0
5.28828E1,0E0
1.09863E1,0E0
-1.94316E1,0E0
-4.72929E1,0E0
-8.22343E1,0E0
-1.23988E2,0E0
-1.65070E2,0E0
1.62265E2,0E0
1.30304E2,0E0
1.00535E2,0E0
5.95898E1,0E0
1.81503E1,0E0
-1.58784E1,0E0
-4.71464E1,0E0
-8.22343E1,0E0
-1.23E2,0E0
-1.61265E2,0E0
1.63164E2,0E0
1.28304E2,0E0
9.01835E1,0E0
5.07167E1,0E0
1.46626E1,0E0
-2.14169E1,0E0
-5.69355E1,0E0
-9.67812E1,0E0
-1.36890E2,0E0
-1.74656E2,0E0
1.49171E2,0E0
1.12523E2,0E0
6.94492E1,0E0
2.84482E1,0E0
-8.35791E0,0E0
-4.25957E1,0E0
-8.20546E1,0E0
-1.33429E2,0E0
1.79343E2,0E0
1.46304E2,0E0
1.17320E2,0E0
7.43281E1,0E0
6.02050E0,0E0
END

