CITIFILE A.01.00
#NA VERSION HP8753E.07.12
NAME FORMATTED
VAR FREQ MAG 201
DATA S[1,2] RI
SEG_LIST_BEGIN
SEG 30000 6000000000 201
SEG_LIST_END
BEGIN
2.13183E1,0E0
4.75293E0,0E0
-1.94492E1,0E0
-4.87519E1,0E0
-9.72109E1,0E0
-1.38234E2,0E0
1.75093E2,0E0
1.18898E2,0E0
6.05195E1,0E0
2.27353E1,0E0
-4.17519E1,0E0
-1.02804E2,0E0
-1.64843E2,0E0
1.30281E2,0E0
3.56738E1,0E0
-5.19003E1,0E0
-1.26710E2,0E0
1.77218E2,0E0
1.23925E2,0E0
7.76328E1,0E0
4.84101E1,0E0
7.18090E0,0E0
-2.31337E1,0E0
7.29492E0,0E0
-2.18935E1,0E0
-6.49257E1,0E0
-1.12742E2,0E0
-1.53718E2,0E0
1.66046E2,0E0
1.18234E2,0E0
7.07070E1,0E0
3.30039E1,0E0
-3.63244E0,0E0
-4.59433E1,0E0
-8.95664E1,0E0
-1.32656E2,0E0
-1.72437E2,0E0
1.45375E2,0E0
9.98203E1,0E0
5.10957E1,0E0
-3.39202E-1,0E0
-4.50390E1,0E0
-6.13027E1,0E0
-6.13144E1,0E0
-8.5875E1,0E0
-1.21757E2,0E0
-1.62195E2,0E0
1.59210E2,0E0
1.24570E2,0E0
8.02890E1,0E0
3.76386E1,0E0
9.99755E-1,0E0
-3.25156E1,0E0
-7.46796E1,0E0
-1.18027E2,0E0
-1.53015E2,0E0
1.70578E2,0E0
1.35843E2,0E0
1.01628E2,0E0
7.37070E1,0E0
5.54999E1,0E0
4.88964E1,0E0
1.47514E1,0E0
-3.88769E1,0E0
-9.56953E1,0E0
-1.4275E2,0E0
-1.71484E2,0E0
1.60398E2,0E0
1.29585E2,0E0
9.27148E1,0E0
5.09394E1,0E0
1.15795E1,0E0
-2.67783E1,0E0
-6.63046E1,0E0
-1.10035E2,0E0
-1.53906E2,0E0
1.65812E2,0E0
1.31914E2,0E0
9.41992E1,0E0
4.72539E1,0E0
1.00507E1,0E0
-2.33339E1,0E0
-5.48789E1,0E0
-9.55273E1,0E0
-1.31570E2,0E0
-1.66156E2,0E0
1.68E2,0E0
1.56179E2,0E0
1.71328E2,0E0
1.56687E2,0E0
1.18871E2,0E0
8.48242E1,0E0
4.06738E1,0E0
-9.94970E0,0E0
-6.20722E1,0E0
-1.09015E2,0E0
-1.50445E2,0E0
1.7225E2,0E0
1.32406E2,0E0
9.18242E1,0E0
5.39042E1,0E0
2.56015E1,0E0
6.32519E0,0E0
-2.40703E1,0E0
-6.86875E1,0E0
-1.12863E2,0E0
-1.47773E2,0E0
-1.76507E2,0E0
1.48218E2,0E0
1.06796E2,0E0
6.60742E1,0E0
2.98701E1,0E0
-5.90795E0,0E0
-4.19589E1,0E0
-7.90312E1,0E0
-1.19062E2,0E0
-1.57023E2,0E0
1.71140E2,0E0
1.37882E2,0E0
9.84609E1,0E0
5.84511E1,0E0
2.27705E1,0E0
-1.04111E1,0E0
-4.74238E1,0E0
-8.61601E1,0E0
-1.25050E2,0E0
-1.62625E2,0E0
1.60578E2,0E0
1.24183E2,0E0
8.30585E1,0E0
3.88906E1,0E0
-1.47631E0,0E0
-3.96933E1,0E0
-7.61249E1,0E0
-1.18261E2,0E0
-1.60953E2,0E0
1.56359E2,0E0
1.17410E2,0E0
7.89140E1,0E0
3.64824E1,0E0
-5.85571E0,0E0
-3.85371E1,0E0
-4.39414E1,0E0
-3.30156E1,0E0
-5.56171E1,0E0
-8.51328E1,0E0
-1.21668E2,0E0
-1.72539E2,0E0
1.35882E2,0E0
1.12335E2,0E0
1.06925E2,0E0
7.76210E1,0E0
4.50273E1,0E0
8.92334E0,0E0
-2.55E1,0E0
-6.24980E1,0E0
-1.00914E2,0E0
-1.43632E2,0E0
1.77289E2,0E0
1.50578E2,0E0
1.14968E2,0E0
7.14882E1,0E0
3.01689E1,0E0
-1.79351E0,0E0
-3.27226E1,0E0
-7.16992E1,0E0
-1.14179E2,0E0
-1.53648E2,0E0
1.72789E2,0E0
1.37484E2,0E0
1.04718E2,0E0
6.41445E1,0E0
2.50400E1,0E0
-6.98877E0,0E0
-3.99843E1,0E0
-7.775E1,0E0
-1.18015E2,0E0
-1.52632E2,0E0
1.73109E2,0E0
1.36117E2,0E0
9.63281E1,0E0
5.87832E1,0E0
2.48564E1,0E0
-1.34062E1,0E0
-5.16015E1,0E0
-8.94804E1,0E0
-1.25441E2,0E0
-1.6075E2,0E0
1.60351E2,0E0
1.23273E2,0E0
8.45859E1,0E0
4.86152E1,0E0
9.98925E0,0E0
-2.97539E1,0E0
-6.66132E1,0E0
-1.02070E2,0E0
-1.41242E2,0E0
1.79156E2,0E0
1.45007E2,0E0
1.10519E2,0E0
7.04960E1,0E0
END

