CITIFILE A.01.00
#NA VERSION HP8753E.07.12
NAME FORMATTED
VAR FREQ MAG 201
DATA S[2,1] RI
SEG_LIST_BEGIN
SEG 30000 6000000000 201
SEG_LIST_END
BEGIN
4.51679E-2,0E0
7.62825E-2,0E0
1.17256E-1,0E0
1.92680E-1,0E0
2.39555E-1,0E0
2.98431E-1,0E0
4.15847E-1,0E0
4.88494E-1,0E0
4.91378E-1,0E0
4.61944E-1,0E0
5.26489E-1,0E0
4.84588E-1,0E0
4.22134E-1,0E0
4.19296E-1,0E0
3.82232E-1,0E0
2.5177E-1,0E0
1.78634E-1,0E0
1.35177E-1,0E0
1.28227E-1,0E0
1.00902E-1,0E0
8.39614E-2,0E0
7.76100E-2,0E0
4.77447E-2,0E0
5.40618E-2,0E0
1.17015E-1,0E0
1.74049E-1,0E0
2.29316E-1,0E0
2.46887E-1,0E0
3.04901E-1,0E0
3.64074E-1,0E0
3.42178E-1,0E0
3.45199E-1,0E0
3.63174E-1,0E0
4.15023E-1,0E0
4.21920E-1,0E0
4.20455E-1,0E0
4.30297E-1,0E0
4.39651E-1,0E0
4.58587E-1,0E0
4.18624E-1,0E0
3.44482E-1,0E0
2.39814E-1,0E0
1.16012E-1,0E0
1.31401E-1,0E0
1.95838E-1,0E0
2.29736E-1,0E0
2.47741E-1,0E0
2.85095E-1,0E0
3.02368E-1,0E0
3.12835E-1,0E0
3.06427E-1,0E0
3.05114E-1,0E0
2.88238E-1,0E0
2.97119E-1,0E0
2.98019E-1,0E0
2.52517E-1,0E0
2.25006E-1,0E0
2.07763E-1,0E0
1.91963E-1,0E0
1.55746E-1,0E0
1.25656E-1,0E0
1.75415E-1,0E0
2.96295E-1,0E0
3.99444E-1,0E0
3.91433E-1,0E0
3.33480E-1,0E0
2.69592E-1,0E0
2.48344E-1,0E0
2.88055E-1,0E0
3.49731E-1,0E0
3.53408E-1,0E0
3.39614E-1,0E0
3.78860E-1,0E0
3.92669E-1,0E0
3.91601E-1,0E0
3.57666E-1,0E0
3.34182E-1,0E0
3.06762E-1,0E0
2.96478E-1,0E0
2.88192E-1,0E0
2.33764E-1,0E0
2.00080E-1,0E0
1.76849E-1,0E0
1.75323E-1,0E0
1.45584E-1,0E0
1.05979E-1,0E0
7.52487E-2,0E0
5.33847E-2,0E0
5.74092E-2,0E0
1.01932E-1,0E0
1.63421E-1,0E0
2.29019E-1,0E0
3.21914E-1,0E0
3.93539E-1,0E0
4.24148E-1,0E0
4.04556E-1,0E0
3.67752E-1,0E0
3.32687E-1,0E0
3.40637E-1,0E0
3.18496E-1,0E0
2.65747E-1,0E0
2.18757E-1,0E0
2.40631E-1,0E0
3.02459E-1,0E0
3.48465E-1,0E0
3.35937E-1,0E0
3.08715E-1,0E0
3.09875E-1,0E0
3.41064E-1,0E0
3.83667E-1,0E0
3.73214E-1,0E0
3.45596E-1,0E0
3.42392E-1,0E0
3.55728E-1,0E0
3.72619E-1,0E0
3.65966E-1,0E0
3.38195E-1,0E0
3.31710E-1,0E0
3.47015E-1,0E0
3.62228E-1,0E0
3.60839E-1,0E0
3.48312E-1,0E0
3.41659E-1,0E0
3.69949E-1,0E0
3.78570E-1,0E0
3.77075E-1,0E0
3.69247E-1,0E0
3.64639E-1,0E0
3.87023E-1,0E0
4.14413E-1,0E0
3.93631E-1,0E0
3.66912E-1,0E0
3.38699E-1,0E0
3.35083E-1,0E0
3.34533E-1,0E0
3.16085E-1,0E0
2.72094E-1,0E0
2.34962E-1,0E0
2.04605E-1,0E0
1.68418E-1,0E0
1.25717E-1,0E0
7.55691E-2,0E0
4.15515E-2,0E0
4.73957E-2,0E0
7.22808E-2,0E0
9.50508E-2,0E0
1.24492E-1,0E0
1.49574E-1,0E0
1.20655E-1,0E0
7.78045E-2,0E0
7.72705E-2,0E0
1.06231E-1,0E0
1.35124E-1,0E0
1.45217E-1,0E0
1.58454E-1,0E0
1.92314E-1,0E0
2.14935E-1,0E0
2.09922E-1,0E0
2.01042E-1,0E0
2.17651E-1,0E0
2.46879E-1,0E0
2.62329E-1,0E0
2.56103E-1,0E0
2.42851E-1,0E0
2.46322E-1,0E0
2.81234E-1,0E0
3.11492E-1,0E0
2.87063E-1,0E0
2.57110E-1,0E0
2.70248E-1,0E0
2.94876E-1,0E0
2.98217E-1,0E0
2.83416E-1,0E0
2.82440E-1,0E0
3.00216E-1,0E0
3.07037E-1,0E0
3.10516E-1,0E0
3.04595E-1,0E0
3.08944E-1,0E0
3.19839E-1,0E0
3.33099E-1,0E0
3.25973E-1,0E0
3.15033E-1,0E0
3.31069E-1,0E0
3.42239E-1,0E0
3.24813E-1,0E0
3.18847E-1,0E0
3.3815E-1,0E0
3.42834E-1,0E0
3.33404E-1,0E0
3.41827E-1,0E0
3.44909E-1,0E0
3.43322E-1,0E0
3.34732E-1,0E0
3.21212E-1,0E0
3.24127E-1,0E0
3.08517E-1,0E0
2.93350E-1,0E0
2.83859E-1,0E0
2.82836E-1,0E0
2.82699E-1,0E0
END

