CITIFILE A.01.00
#NA VERSION HP8753E.07.12
NAME FORMATTED
VAR FREQ MAG 201
DATA S[2,2] RI
SEG_LIST_BEGIN
SEG 30000 6000000000 201
SEG_LIST_END
BEGIN
1.00701E0,0E0
9.63470E-1,0E0
9.21569E-1,0E0
9.10949E-1,0E0
8.84704E-1,0E0
8.15002E-1,0E0
8.01361E-1,0E0
6.81640E-1,0E0
5.65521E-1,0E0
2.70034E-1,0E0
4.87731E-1,0E0
6.51153E-1,0E0
6.91680E-1,0E0
6.62017E-1,0E0
6.32598E-1,0E0
8.17321E-1,0E0
8.04077E-1,0E0
8.15918E-1,0E0
7.78900E-1,0E0
7.23602E-1,0E0
7.13745E-1,0E0
5.78125E-1,0E0
3.15292E-1,0E0
1.18282E-1,0E0
1.62643E-1,0E0
2.85003E-1,0E0
4.77172E-1,0E0
5.46691E-1,0E0
6.32751E-1,0E0
7.21862E-1,0E0
6.90918E-1,0E0
7.01660E-1,0E0
7.18505E-1,0E0
7.30804E-1,0E0
7.11700E-1,0E0
7.37335E-1,0E0
7.39959E-1,0E0
7.03308E-1,0E0
7.21405E-1,0E0
7.61627E-1,0E0
7.64862E-1,0E0
7.61810E-1,0E0
8.44390E-1,0E0
8.87207E-1,0E0
8.28704E-1,0E0
8.18267E-1,0E0
8.2724E-1,0E0
8.34472E-1,0E0
8.26782E-1,0E0
8.46038E-1,0E0
8.28277E-1,0E0
7.80395E-1,0E0
8.26660E-1,0E0
8.69049E-1,0E0
8.46221E-1,0E0
7.86346E-1,0E0
8.23883E-1,0E0
8.50189E-1,0E0
8.30078E-1,0E0
8.24432E-1,0E0
8.16589E-1,0E0
7.68981E-1,0E0
7.07244E-1,0E0
6.97631E-1,0E0
6.95282E-1,0E0
6.94122E-1,0E0
7.01141E-1,0E0
6.99676E-1,0E0
6.10870E-1,0E0
4.94094E-1,0E0
4.65683E-1,0E0
4.37683E-1,0E0
4.00146E-1,0E0
4.42779E-1,0E0
5.29815E-1,0E0
5.95642E-1,0E0
6.29974E-1,0E0
6.55273E-1,0E0
7.29644E-1,0E0
7.88269E-1,0E0
7.50824E-1,0E0
7.67059E-1,0E0
7.84271E-1,0E0
8.28552E-1,0E0
8.28125E-1,0E0
8.21350E-1,0E0
8.04992E-1,0E0
7.82653E-1,0E0
7.9422E-1,0E0
8.01635E-1,0E0
7.12585E-1,0E0
6.10229E-1,0E0
4.96536E-1,0E0
3.92272E-1,0E0
3.60641E-1,0E0
4.16870E-1,0E0
4.78454E-1,0E0
5.59906E-1,0E0
5.85937E-1,0E0
5.79162E-1,0E0
5.45959E-1,0E0
4.89151E-1,0E0
5.21484E-1,0E0
5.54626E-1,0E0
5.72448E-1,0E0
5.13366E-1,0E0
4.93362E-1,0E0
4.52926E-1,0E0
4.34845E-1,0E0
4.05517E-1,0E0
4.19021E-1,0E0
4.67071E-1,0E0
5.22827E-1,0E0
5.66894E-1,0E0
5.69702E-1,0E0
5.80017E-1,0E0
5.78125E-1,0E0
5.95397E-1,0E0
6.02142E-1,0E0
5.86425E-1,0E0
5.83984E-1,0E0
5.75836E-1,0E0
5.84289E-1,0E0
5.61279E-1,0E0
5.50140E-1,0E0
5.37323E-1,0E0
5.35186E-1,0E0
5.15258E-1,0E0
5.01800E-1,0E0
4.82925E-1,0E0
4.66339E-1,0E0
4.69711E-1,0E0
4.67315E-1,0E0
4.86633E-1,0E0
5.08178E-1,0E0
5.76751E-1,0E0
5.94818E-1,0E0
6.11084E-1,0E0
6.66229E-1,0E0
7.27508E-1,0E0
7.56317E-1,0E0
7.46185E-1,0E0
7.60345E-1,0E0
7.67608E-1,0E0
7.49511E-1,0E0
6.98303E-1,0E0
6.26373E-1,0E0
5.59936E-1,0E0
5.91735E-1,0E0
6.98059E-1,0E0
7.31872E-1,0E0
7.47070E-1,0E0
7.18078E-1,0E0
7.47161E-1,0E0
7.48382E-1,0E0
7.09533E-1,0E0
6.86828E-1,0E0
6.92199E-1,0E0
6.97631E-1,0E0
6.7099E-1,0E0
7.04925E-1,0E0
6.91925E-1,0E0
6.78863E-1,0E0
6.68182E-1,0E0
6.81640E-1,0E0
7.11395E-1,0E0
6.59820E-1,0E0
6.43158E-1,0E0
6.46881E-1,0E0
6.29913E-1,0E0
6.12609E-1,0E0
5.87463E-1,0E0
5.76782E-1,0E0
5.67077E-1,0E0
5.92651E-1,0E0
5.68969E-1,0E0
5.23834E-1,0E0
4.94751E-1,0E0
5.01251E-1,0E0
5.26825E-1,0E0
4.77706E-1,0E0
4.29000E-1,0E0
4.11682E-1,0E0
4.17953E-1,0E0
4.08538E-1,0E0
3.70376E-1,0E0
3.62289E-1,0E0
3.55514E-1,0E0
3.37966E-1,0E0
2.92251E-1,0E0
2.64587E-1,0E0
2.83706E-1,0E0
3.01467E-1,0E0
2.70706E-1,0E0
2.00309E-1,0E0
1.87576E-1,0E0
2.42118E-1,0E0
2.57186E-1,0E0
2.06214E-1,0E0
1.43547E-1,0E0
1.87355E-1,0E0
END

