CITIFILE A.01.00
#NA VERSION HP8753E.07.12
NAME FORMATTED
VAR FREQ MAG 201
DATA S[1,1] RI
SEG_LIST_BEGIN
SEG 30000 6000000000 201
SEG_LIST_END
BEGIN
7.51171E0,0E0
-4.25742E1,0E0
-8.16328E1,0E0
-1.20441E2,0E0
-1.66265E2,0E0
1.51312E2,0E0
1.06835E2,0E0
5.82636E1,0E0
2.72480E1,0E0
7.68554E1,0E0
3.08710E1,0E0
-1.53920E1,0E0
-6.94492E1,0E0
-1.29031E2,0E0
-8.05312E1,0E0
-1.32437E2,0E0
1.72851E2,0E0
1.47312E2,0E0
1.05312E2,0E0
6.04492E1,0E0
2.05449E1,0E0
-2.04570E1,0E0
-6.01484E1,0E0
-1.00710E2,0E0
-1.40031E2,0E0
1.79398E2,0E0
1.38515E2,0E0
1.03949E2,0E0
6.51484E1,0E0
2.30556E1,0E0
-1.78720E1,0E0
-5.24550E1,0E0
-9.23828E1,0E0
-1.36039E2,0E0
-1.75359E2,0E0
1.41468E2,0E0
9.77734E1,0E0
4.94043E1,0E0
-3.12011E0,0E0
-7.11132E1,0E0
-1.54257E2,0E0
1.02207E2,0E0
1.72343E1,0E0
-4.29648E1,0E0
-9.83789E1,0E0
-1.47351E2,0E0
1.67820E2,0E0
1.23441E2,0E0
8.06445E1,0E0
4.08027E1,0E0
-9.18731E-1,0E0
-4.47304E1,0E0
-8.23320E1,0E0
-1.21546E2,0E0
-1.64164E2,0E0
1.52875E2,0E0
1.14453E2,0E0
7.30625E1,0E0
2.68574E1,0E0
-1.52480E1,0E0
-6.11386E1,0E0
-1.11668E2,0E0
-1.54054E2,0E0
-8.50898E1,0E0
-1.34812E2,0E0
1.79046E2,0E0
1.39617E2,0E0
9.96601E1,0E0
5.90468E1,0E0
1.97099E1,0E0
-1.52988E1,0E0
-4.89570E1,0E0
-8.64218E1,0E0
-1.29093E2,0E0
-1.65460E2,0E0
1.57757E2,0E0
1.18152E2,0E0
7.94492E1,0E0
4.30839E1,0E0
3.18603E0,0E0
-3.88339E1,0E0
-7.38476E1,0E0
-1.08691E2,0E0
-1.47007E2,0E0
1.71539E2,0E0
1.36203E2,0E0
1.02582E2,0E0
6.53359E1,0E0
2.69150E1,0E0
-1.39668E1,0E0
-5.52656E1,0E0
-9.42929E1,0E0
-1.26988E2,0E0
-1.53953E2,0E0
-1.79156E2,0E0
1.54789E2,0E0
1.27519E2,0E0
9.59492E1,0E0
5.59804E1,0E0
1.55180E1,0E0
-2.27763E1,0E0
-6.05195E1,0E0
-1.00406E2,0E0
-1.34007E2,0E0
-1.41804E2,0E0
-1.77796E2,0E0
1.43054E2,0E0
1.05796E2,0E0
7.19882E1,0E0
3.0875E1,0E0
-9.95507E0,0E0
-4.41562E1,0E0
-7.75976E1,0E0
-1.12527E2,0E0
-1.52062E2,0E0
1.70687E2,0E0
1.34242E2,0E0
1.01691E2,0E0
6.69570E1,0E0
2.84511E1,0E0
-1.02338E1,0E0
-4.80761E1,0E0
-8.07499E1,0E0
-1.18324E2,0E0
-1.57554E2,0E0
1.62601E2,0E0
1.26718E2,0E0
9.21132E1,0E0
5.35703E1,0E0
1.01167E1,0E0
-3.03183E1,0E0
-6.36835E1,0E0
-9.68906E1,0E0
-1.35820E2,0E0
1.76429E2,0E0
1.32007E2,0E0
9.32226E1,0E0
5.57148E1,0E0
1.18501E1,0E0
-3.8125E1,0E0
-7.95156E1,0E0
-1.06460E2,0E0
-1.26269E2,0E0
-1.60578E2,0E0
1.42429E2,0E0
8.63476E1,0E0
3.45566E1,0E0
-2.07334E1,0E0
-8.61757E1,0E0
-1.48046E2,0E0
1.66804E2,0E0
1.21191E2,0E0
5.83652E1,0E0
8.48693E-1,0E0
-3.82031E1,0E0
-7.21328E1,0E0
-1.17722E2,0E0
-1.74695E2,0E0
1.43367E2,0E0
1.10738E2,0E0
7.69570E1,0E0
2.46269E1,0E0
-2.73662E1,0E0
-6.03027E1,0E0
-8.67539E1,0E0
-1.17539E2,0E0
-1.69453E2,0E0
1.37218E2,0E0
1.01546E2,0E0
7.13242E1,0E0
3.22402E1,0E0
-1.90722E1,0E0
-6.18242E1,0E0
-9.55859E1,0E0
-1.29414E2,0E0
-1.71015E2,0E0
1.42179E2,0E0
1.00355E2,0E0
6.74531E1,0E0
3.26074E1,0E0
-9.86572E0,0E0
-5.35859E1,0E0
-9.12695E1,0E0
-1.24980E2,0E0
-1.65359E2,0E0
1.50812E2,0E0
1.11468E2,0E0
7.2E1,0E0
3.29238E1,0E0
-3.73950E0,0E0
-4.06757E1,0E0
-7.72617E1,0E0
-1.14289E2,0E0
-1.50679E2,0E0
1.69515E2,0E0
1.31476E2,0E0
9.43593E1,0E0
5.98066E1,0E0
2.26660E1,0E0
-2.00488E1,0E0
-5.88867E1,0E0
END

