CITIFILE A.01.00
#NA VERSION HP8753E.07.12
NAME FORMATTED
VAR FREQ MAG 201
DATA S[1,2] RI
SEG_LIST_BEGIN
SEG 30000 6000000000 201
SEG_LIST_END
BEGIN
4.05006E-2,0E0
7.15408E-2,0E0
1.11171E-1,0E0
1.85836E-1,0E0
2.30018E-1,0E0
2.86804E-1,0E0
4.03503E-1,0E0
4.73556E-1,0E0
4.73327E-1,0E0
4.83291E-1,0E0
5.38787E-1,0E0
4.93438E-1,0E0
4.23446E-1,0E0
4.26086E-1,0E0
3.83102E-1,0E0
2.41447E-1,0E0
1.75262E-1,0E0
1.41609E-1,0E0
1.27471E-1,0E0
1.00029E-1,0E0
9.13963E-2,0E0
8.08563E-2,0E0
4.95452E-2,0E0
5.15174E-2,0E0
1.07440E-1,0E0
1.62872E-1,0E0
2.23693E-1,0E0
2.44278E-1,0E0
2.96081E-1,0E0
3.54461E-1,0E0
3.36608E-1,0E0
3.38943E-1,0E0
3.55987E-1,0E0
4.05288E-1,0E0
4.20043E-1,0E0
4.11697E-1,0E0
4.21112E-1,0E0
4.31533E-1,0E0
4.46350E-1,0E0
4.16107E-1,0E0
3.45794E-1,0E0
2.24029E-1,0E0
1.18728E-1,0E0
1.36611E-1,0E0
1.79084E-1,0E0
2.33581E-1,0E0
2.57309E-1,0E0
2.69714E-1,0E0
2.93365E-1,0E0
3.26049E-1,0E0
3.09326E-1,0E0
2.80059E-1,0E0
2.95486E-1,0E0
3.07510E-1,0E0
2.81906E-1,0E0
2.44926E-1,0E0
2.31216E-1,0E0
2.09594E-1,0E0
1.78215E-1,0E0
1.56425E-1,0E0
1.28891E-1,0E0
1.73965E-1,0E0
2.85339E-1,0E0
4.01214E-1,0E0
4.05288E-1,0E0
3.13629E-1,0E0
2.59567E-1,0E0
2.60360E-1,0E0
2.92800E-1,0E0
3.28826E-1,0E0
3.52462E-1,0E0
3.52569E-1,0E0
3.65692E-1,0E0
3.78494E-1,0E0
3.95599E-1,0E0
3.65753E-1,0E0
3.18985E-1,0E0
2.94921E-1,0E0
3.05801E-1,0E0
2.84759E-1,0E0
2.24929E-1,0E0
1.97303E-1,0E0
1.84402E-1,0E0
1.70051E-1,0E0
1.40045E-1,0E0
1.06491E-1,0E0
7.65914E-2,0E0
5.09395E-2,0E0
5.60779E-2,0E0
1.06102E-1,0E0
1.58042E-1,0E0
2.21481E-1,0E0
3.17947E-1,0E0
3.95584E-1,0E0
4.14581E-1,0E0
3.94653E-1,0E0
3.53302E-1,0E0
3.39798E-1,0E0
3.27911E-1,0E0
3.10974E-1,0E0
2.67776E-1,0E0
2.14042E-1,0E0
2.31681E-1,0E0
2.87918E-1,0E0
3.49487E-1,0E0
3.23165E-1,0E0
2.97164E-1,0E0
2.95593E-1,0E0
3.40499E-1,0E0
3.66180E-1,0E0
3.55926E-1,0E0
3.43444E-1,0E0
3.40026E-1,0E0
3.48938E-1,0E0
3.55957E-1,0E0
3.62381E-1,0E0
3.29925E-1,0E0
3.19854E-1,0E0
3.38974E-1,0E0
3.61587E-1,0E0
3.58306E-1,0E0
3.31695E-1,0E0
3.38089E-1,0E0
3.56948E-1,0E0
3.72100E-1,0E0
3.63479E-1,0E0
3.62976E-1,0E0
3.60061E-1,0E0
3.73443E-1,0E0
3.99612E-1,0E0
3.86749E-1,0E0
3.60153E-1,0E0
3.26355E-1,0E0
3.26889E-1,0E0
3.22250E-1,0E0
3.02444E-1,0E0
2.59475E-1,0E0
2.23693E-1,0E0
1.96334E-1,0E0
1.64825E-1,0E0
1.20899E-1,0E0
7.07473E-2,0E0
4.03194E-2,0E0
4.72164E-2,0E0
7.02552E-2,0E0
9.20295E-2,0E0
1.21547E-1,0E0
1.48376E-1,0E0
1.12190E-1,0E0
7.47299E-2,0E0
7.80715E-2,0E0
1.07040E-1,0E0
1.24290E-1,0E0
1.43516E-1,0E0
1.60026E-1,0E0
1.80336E-1,0E0
2.05619E-1,0E0
2.11929E-1,0E0
1.96365E-1,0E0
1.95602E-1,0E0
2.40692E-1,0E0
2.58544E-1,0E0
2.43133E-1,0E0
2.29995E-1,0E0
2.47276E-1,0E0
2.89764E-1,0E0
2.88925E-1,0E0
2.72857E-1,0E0
2.63397E-1,0E0
2.61032E-1,0E0
2.79556E-1,0E0
2.91763E-1,0E0
2.81326E-1,0E0
2.60284E-1,0E0
2.84286E-1,0E0
3.03848E-1,0E0
3.04077E-1,0E0
2.92663E-1,0E0
2.97180E-1,0E0
3.26858E-1,0E0
3.24111E-1,0E0
3.17550E-1,0E0
3.20587E-1,0E0
3.32611E-1,0E0
3.35693E-1,0E0
3.28567E-1,0E0
3.28201E-1,0E0
3.30795E-1,0E0
3.39462E-1,0E0
3.40774E-1,0E0
3.34854E-1,0E0
3.38089E-1,0E0
3.38470E-1,0E0
3.37036E-1,0E0
3.12576E-1,0E0
3.11004E-1,0E0
3.17733E-1,0E0
2.90634E-1,0E0
2.71026E-1,0E0
2.74383E-1,0E0
2.78701E-1,0E0
END

