CITIFILE A.01.00
#NA VERSION HP8753E.07.12
NAME FORMATTED
VAR FREQ MAG 201
DATA S[2,1] RI
SEG_LIST_BEGIN
SEG 30000 6000000000 201
SEG_LIST_END
BEGIN
2.14326E1,0E0
3.96191E0,0E0
-1.925E1,0E0
-4.65410E1,0E0
-9.47538E1,0E0
-1.34796E2,0E0
1.79109E2,0E0
1.23960E2,0E0
6.61171E1,0E0
2.94433E1,0E0
-3.25390E1,0E0
-9.22734E1,0E0
-1.53132E2,0E0
1.43039E2,0E0
5.07324E1,0E0
-3.47636E1,0E0
-1.13992E2,0E0
-1.63265E2,0E0
1.45429E2,0E0
9.56718E1,0E0
6.93007E1,0E0
3.25781E1,0E0
4.97265E0,0E0
3.67597E1,0E0
6.02050E0,0E0
-3.89726E1,0E0
-8.69023E1,0E0
-1.24031E2,0E0
-1.64203E2,0E0
1.48734E2,0E0
1.02058E2,0E0
6.62148E1,0E0
3.02421E1,0E0
-1.10127E1,0E0
-5.36191E1,0E0
-9.52851E1,0E0
-1.34273E2,0E0
-1.75437E2,0E0
1.39476E2,0E0
9.05195E1,0E0
4.41484E1,0E0
-3.92492E0,0E0
-1.94638E1,0E0
-1.33198E1,0E0
-3.9125E1,0E0
-7.77968E1,0E0
-1.12949E2,0E0
-1.48132E2,0E0
1.71140E2,0E0
1.315E2,0E0
9.32929E1,0E0
5.38339E1,0E0
1.90693E1,0E0
-1.77050E1,0E0
-5.86621E1,0E0
-9.86289E1,0E0
-1.31031E2,0E0
-1.62335E2,0E0
1.62281E2,0E0
1.32406E2,0E0
1.18207E2,0E0
1.13683E2,0E0
7.89492E1,0E0
2.52167E1,0E0
-2.81621E1,0E0
-7.21562E1,0E0
-1.06847E2,0E0
-1.31328E2,0E0
-1.56351E2,0E0
1.64320E2,0E0
1.21804E2,0E0
8.54765E1,0E0
5.15078E1,0E0
7.64086E0,0E0
-3.39707E1,0E0
-7.48554E1,0E0
-1.13296E2,0E0
-1.5E2,0E0
1.73343E2,0E0
1.32523E2,0E0
9.14726E1,0E0
5.97734E1,0E0
2.90937E1,0E0
-5.90942E0,0E0
-4.67031E1,0E0
-7.93515E1,0E0
-1.01511E2,0E0
-1.13214E2,0E0
-9.97421E1,0E0
-1.12160E2,0E0
-1.44789E2,0E0
1.77773E2,0E0
1.34414E2,0E0
8.65312E1,0E0
3.56562E1,0E0
-1.06103E1,0E0
-5.31035E1,0E0
-8.76211E1,0E0
-1.25425E2,0E0
-1.66781E2,0E0
1.56960E2,0E0
1.31046E2,0E0
1.12972E2,0E0
8.08789E1,0E0
3.91406E1,0E0
-4.19287E0,0E0
-3.71503E1,0E0
-6.82265E1,0E0
-1.00105E2,0E0
-1.39710E2,0E0
1.78578E2,0E0
1.43265E2,0E0
1.09593E2,0E0
7.60664E1,0E0
3.82949E1,0E0
-1.00250E-1,0E0
-3.72363E1,0E0
-6.77070E1,0E0
-1.01531E2,0E0
-1.38578E2,0E0
-1.75835E2,0E0
1.47757E2,0E0
1.16058E2,0E0
7.94804E1,0E0
4.31543E1,0E0
3.88916E0,0E0
-3.23476E1,0E0
-6.75156E1,0E0
-1.02332E2,0E0
-1.435E2,0E0
1.73039E2,0E0
1.35273E2,0E0
9.71679E1,0E0
6.24023E1,0E0
2.15068E1,0E0
-2.08398E1,0E0
-6.27890E1,0E0
-1.00824E2,0E0
-1.39109E2,0E0
-1.79546E2,0E0
1.39882E2,0E0
1.06175E2,0E0
1.01472E2,0E0
1.13398E2,0E0
9.40273E1,0E0
6.42617E1,0E0
2.89892E1,0E0
-2.01806E1,0E0
-6.96796E1,0E0
-9.67734E1,0E0
-1.00625E2,0E0
-1.22511E2,0E0
-1.58742E2,0E0
1.65562E2,0E0
1.34593E2,0E0
9.99609E1,0E0
5.86660E1,0E0
1.77607E1,0E0
-1.44814E1,0E0
-4.57890E1,0E0
-8.10351E1,0E0
-1.22160E2,0E0
-1.60640E2,0E0
1.64875E2,0E0
1.34953E2,0E0
1.02183E2,0E0
5.95566E1,0E0
1.77441E1,0E0
-1.47876E1,0E0
-4.43086E1,0E0
-8.01484E1,0E0
-1.19765E2,0E0
-1.55531E2,0E0
1.72257E2,0E0
1.37593E2,0E0
1.00406E2,0E0
6.40546E1,0E0
2.87949E1,0E0
-6.29394E0,0E0
-4.06699E1,0E0
-7.84531E1,0E0
-1.16793E2,0E0
-1.50625E2,0E0
1.75609E2,0E0
1.36664E2,0E0
9.82031E1,0E0
6.72734E1,0E0
3.13574E1,0E0
-7.14819E0,0E0
-4.29863E1,0E0
-7.88554E1,0E0
-1.15585E2,0E0
-1.54554E2,0E0
1.68937E2,0E0
1.32648E2,0E0
9.67734E1,0E0
5.84960E1,0E0
2.25918E1,0E0
-1.04799E1,0E0
-4.73144E1,0E0
-8.32070E1,0E0
END

