CITIFILE A.01.00
#NA VERSION HP8753E.07.12
NAME FORMATTED
VAR FREQ MAG 201
DATA S[1,2] RI
SEG_LIST_BEGIN
SEG 30000 6000000000 201
SEG_LIST_END
BEGIN
7.89091E-5,0E0
1.26609E-2,0E0
2.44817E-2,0E0
3.84502E-2,0E0
4.82101E-2,0E0
5.70049E-2,0E0
7.58705E-2,0E0
8.73794E-2,0E0
8.80737E-2,0E0
8.14018E-2,0E0
1.21093E-1,0E0
1.24832E-1,0E0
9.81712E-2,0E0
8.17298E-2,0E0
6.96983E-2,0E0
9.59968E-2,0E0
1.13063E-1,0E0
1.30035E-1,0E0
1.60644E-1,0E0
1.75010E-1,0E0
2.06390E-1,0E0
2.21115E-1,0E0
2.00050E-1,0E0
2.31582E-1,0E0
2.63595E-1,0E0
2.72766E-1,0E0
2.66082E-1,0E0
2.74673E-1,0E0
3.00811E-1,0E0
3.33633E-1,0E0
3.05389E-1,0E0
3.07663E-1,0E0
3.22692E-1,0E0
3.44284E-1,0E0
3.52676E-1,0E0
3.40866E-1,0E0
3.30535E-1,0E0
3.35830E-1,0E0
3.55224E-1,0E0
3.45504E-1,0E0
3.13705E-1,0E0
2.80914E-1,0E0
2.76245E-1,0E0
2.64923E-1,0E0
2.16301E-1,0E0
1.76330E-1,0E0
1.90422E-1,0E0
2.30316E-1,0E0
2.88559E-1,0E0
3.67004E-1,0E0
4.06921E-1,0E0
3.89556E-1,0E0
4.20333E-1,0E0
4.55886E-1,0E0
4.53064E-1,0E0
4.19342E-1,0E0
4.29153E-1,0E0
4.29977E-1,0E0
4.05761E-1,0E0
4.07821E-1,0E0
3.91006E-1,0E0
3.30169E-1,0E0
2.64526E-1,0E0
3.57528E-1,0E0
4.54742E-1,0E0
4.20898E-1,0E0
3.54690E-1,0E0
3.38760E-1,0E0
3.52386E-1,0E0
3.21380E-1,0E0
3.06228E-1,0E0
2.93289E-1,0E0
2.81127E-1,0E0
2.66265E-1,0E0
2.68890E-1,0E0
2.43026E-1,0E0
2.20886E-1,0E0
2.21473E-1,0E0
2.60726E-1,0E0
2.55477E-1,0E0
2.18429E-1,0E0
2.07580E-1,0E0
2.03071E-1,0E0
1.98379E-1,0E0
1.69143E-1,0E0
1.29058E-1,0E0
8.59146E-2,0E0
5.63907E-2,0E0
9.01603E-2,0E0
1.74690E-1,0E0
2.42523E-1,0E0
3.28140E-1,0E0
4.72183E-1,0E0
5.85113E-1,0E0
6.19201E-1,0E0
6.35559E-1,0E0
6.00708E-1,0E0
5.91339E-1,0E0
5.86120E-1,0E0
5.79742E-1,0E0
5.41931E-1,0E0
4.53628E-1,0E0
3.93951E-1,0E0
3.86962E-1,0E0
4.63653E-1,0E0
4.54803E-1,0E0
4.30862E-1,0E0
4.06875E-1,0E0
4.48745E-1,0E0
4.66522E-1,0E0
4.40567E-1,0E0
4.15008E-1,0E0
4.08630E-1,0E0
4.20822E-1,0E0
4.29855E-1,0E0
4.44015E-1,0E0
4.10018E-1,0E0
4.00268E-1,0E0
4.21798E-1,0E0
4.53064E-1,0E0
4.55261E-1,0E0
4.22729E-1,0E0
4.28390E-1,0E0
4.44854E-1,0E0
4.72351E-1,0E0
4.56741E-1,0E0
4.51126E-1,0E0
4.37027E-1,0E0
4.53247E-1,0E0
4.86984E-1,0E0
4.71878E-1,0E0
4.35195E-1,0E0
3.94729E-1,0E0
4.06158E-1,0E0
4.23522E-1,0E0
4.21295E-1,0E0
3.81210E-1,0E0
3.48693E-1,0E0
3.22937E-1,0E0
2.83874E-1,0E0
2.20840E-1,0E0
1.37428E-1,0E0
7.06291E-2,0E0
3.36875E-2,0E0
3.56941E-2,0E0
5.49755E-2,0E0
8.98704E-2,0E0
1.29043E-1,0E0
1.11885E-1,0E0
8.04290E-2,0E0
6.69059E-2,0E0
8.32557E-2,0E0
9.88235E-2,0E0
1.15730E-1,0E0
1.30424E-1,0E0
1.46911E-1,0E0
1.70127E-1,0E0
1.77413E-1,0E0
1.65267E-1,0E0
1.63261E-1,0E0
2.08030E-1,0E0
2.29919E-1,0E0
2.11311E-1,0E0
1.97097E-1,0E0
2.17536E-1,0E0
2.60894E-1,0E0
2.60269E-1,0E0
2.47833E-1,0E0
2.40554E-1,0E0
2.39166E-1,0E0
2.63763E-1,0E0
2.78976E-1,0E0
2.69805E-1,0E0
2.52670E-1,0E0
2.77923E-1,0E0
2.95303E-1,0E0
2.89718E-1,0E0
2.75924E-1,0E0
2.77862E-1,0E0
2.99819E-1,0E0
2.85736E-1,0E0
2.73208E-1,0E0
2.6474E-1,0E0
2.70889E-1,0E0
2.69866E-1,0E0
2.61718E-1,0E0
2.59826E-1,0E0
2.56851E-1,0E0
2.64770E-1,0E0
2.67974E-1,0E0
2.61383E-1,0E0
2.64633E-1,0E0
2.7034E-1,0E0
2.73925E-1,0E0
2.62771E-1,0E0
2.70431E-1,0E0
2.89566E-1,0E0
2.78274E-1,0E0
2.64465E-1,0E0
2.77526E-1,0E0
2.94967E-1,0E0
END

