CITIFILE A.01.00
#NA VERSION HP8753E.07.12
NAME FORMATTED
VAR FREQ MAG 201
DATA S[1,2] RI
SEG_LIST_BEGIN
SEG 30000 6000000000 201
SEG_LIST_END
BEGIN
-4.16381E0,0E0
5.12773E1,0E0
1.53271E1,0E0
-2.56289E1,0E0
-6.44687E1,0E0
-1.00742E2,0E0
-1.35859E2,0E0
1.77906E2,0E0
1.35492E2,0E0
1.11265E2,0E0
6.96640E1,0E0
1.95136E1,0E0
-2.58818E1,0E0
-5.19628E1,0E0
-6.65156E1,0E0
-9.27890E1,0E0
-1.31546E2,0E0
-1.59078E2,0E0
1.63929E2,0E0
1.23480E2,0E0
8.67812E1,0E0
4.37773E1,0E0
4.47949E0,0E0
-2.69003E1,0E0
-6.66171E1,0E0
-1.07582E2,0E0
-1.46945E2,0E0
-1.79742E2,0E0
1.42929E2,0E0
1.00308E2,0E0
5.96269E1,0E0
2.53261E1,0E0
-9.85498E0,0E0
-5.01269E1,0E0
-8.94179E1,0E0
-1.30851E2,0E0
-1.66101E2,0E0
1.57593E2,0E0
1.18121E2,0E0
7.64765E1,0E0
3.45546E1,0E0
2.27819E0,0E0
-3.45332E1,0E0
-7.16328E1,0E0
-1.11117E2,0E0
-1.31179E2,0E0
-1.50757E2,0E0
-1.75867E2,0E0
1.52968E2,0E0
1.11937E2,0E0
6.65078E1,0E0
2.58046E1,0E0
-9.27148E0,0E0
-5.12968E1,0E0
-9.57773E1,0E0
-1.32890E2,0E0
-1.70585E2,0E0
1.50398E2,0E0
1.11203E2,0E0
7.42148E1,0E0
3.16582E1,0E0
-6.93798E0,0E0
-3.21074E1,0E0
-4.98203E1,0E0
-9.98749E1,0E0
-1.49398E2,0E0
1.71929E2,0E0
1.41257E2,0E0
1.02582E2,0E0
6.34394E1,0E0
2.85224E1,0E0
-6.56030E0,0E0
-4.38808E1,0E0
-7.64609E1,0E0
-1.14253E2,0E0
-1.50156E2,0E0
1.77710E2,0E0
1.49875E2,0E0
1.14191E2,0E0
6.89140E1,0E0
3.32246E1,0E0
-6.78405E-1,0E0
-3.2625E1,0E0
-7.44257E1,0E0
-1.12718E2,0E0
-1.50101E2,0E0
-1.74804E2,0E0
-1.74765E2,0E0
-1.60414E2,0E0
1.71726E2,0E0
1.29726E2,0E0
9.54609E1,0E0
5.12246E1,0E0
-1.26342E-1,0E0
-4.99042E1,0E0
-9.71992E1,0E0
-1.41296E2,0E0
1.78656E2,0E0
1.36742E2,0E0
9.46953E1,0E0
5.18164E1,0E0
1.08720E1,0E0
-1.92968E1,0E0
-4.58652E1,0E0
-8.06718E1,0E0
-1.23824E2,0E0
-1.61054E2,0E0
1.66804E2,0E0
1.32468E2,0E0
9.14882E1,0E0
5.19707E1,0E0
1.68798E1,0E0
-1.73232E1,0E0
-5.21953E1,0E0
-8.80820E1,0E0
-1.27867E2,0E0
-1.65656E2,0E0
1.61640E2,0E0
1.28851E2,0E0
8.96171E1,0E0
4.92695E1,0E0
1.21298E1,0E0
-2.15966E1,0E0
-5.79999E1,0E0
-9.69335E1,0E0
-1.36773E2,0E0
-1.75492E2,0E0
1.48414E2,0E0
1.12746E2,0E0
7.23203E1,0E0
2.78720E1,0E0
-1.22719E1,0E0
-4.86249E1,0E0
-8.33945E1,0E0
-1.24144E2,0E0
-1.68812E2,0E0
1.47773E2,0E0
1.05828E2,0E0
6.34492E1,0E0
1.63320E1,0E0
-3.40117E1,0E0
-7.89609E1,0E0
-1.13484E2,0E0
-1.14726E2,0E0
-9.60703E1,0E0
-1.03984E2,0E0
-1.31945E2,0E0
1.77796E2,0E0
1.23808E2,0E0
8.95078E1,0E0
7.69453E1,0E0
5.69335E1,0E0
2.85791E1,0E0
-5.96289E0,0E0
-3.90839E1,0E0
-7.50937E1,0E0
-1.11625E2,0E0
-1.54007E2,0E0
1.67390E2,0E0
1.42718E2,0E0
1.08433E2,0E0
6.39902E1,0E0
2.16025E1,0E0
-7.70019E0,0E0
-3.80761E1,0E0
-7.75468E1,0E0
-1.19769E2,0E0
-1.58828E2,0E0
1.67882E2,0E0
1.33179E2,0E0
1.00734E2,0E0
5.91992E1,0E0
1.90927E1,0E0
-1.30380E1,0E0
-4.67949E1,0E0
-8.65117E1,0E0
-1.27984E2,0E0
-1.62289E2,0E0
1.62562E2,0E0
1.24285E2,0E0
8.48203E1,0E0
4.74394E1,0E0
1.43686E1,0E0
-2.22626E1,0E0
-5.89472E1,0E0
-9.50585E1,0E0
-1.30812E2,0E0
-1.64367E2,0E0
1.59132E2,0E0
1.22867E2,0E0
8.61562E1,0E0
5.24843E1,0E0
1.59462E1,0E0
-2.27197E1,0E0
-5.78632E1,0E0
-9.17343E1,0E0
-1.30414E2,0E0
-1.70437E2,0E0
1.55976E2,0E0
1.21777E2,0E0
8.02187E1,0E0
END

