CITIFILE A.01.00
#NA VERSION HP8753E.07.12
NAME FORMATTED
VAR FREQ MAG 201
DATA S[2,2] RI
SEG_LIST_BEGIN
SEG 30000 6000000000 201
SEG_LIST_END
BEGIN
1.04693E0,0E0
1.01214E0,0E0
9.72900E-1,0E0
1.00396E0,0E0
9.81811E-1,0E0
9.39331E-1,0E0
1.00280E0,0E0
9.88464E-1,0E0
9.55505E-1,0E0
9.07379E-1,0E0
9.97680E-1,0E0
9.95788E-1,0E0
9.21936E-1,0E0
9.18029E-1,0E0
9.45007E-1,0E0
9.82971E-1,0E0
9.03015E-1,0E0
9.22058E-1,0E0
9.19738E-1,0E0
8.98468E-1,0E0
9.12689E-1,0E0
9.12445E-1,0E0
8.94958E-1,0E0
8.52630E-1,0E0
9.03167E-1,0E0
8.99017E-1,0E0
8.47381E-1,0E0
8.35388E-1,0E0
8.72955E-1,0E0
8.90625E-1,0E0
8.06640E-1,0E0
8.35235E-1,0E0
8.48663E-1,0E0
8.44665E-1,0E0
8.22967E-1,0E0
8.37127E-1,0E0
8.34716E-1,0E0
8.07525E-1,0E0
8.40545E-1,0E0
8.54370E-1,0E0
8.20312E-1,0E0
7.90557E-1,0E0
8.49578E-1,0E0
8.86138E-1,0E0
8.29193E-1,0E0
8.35632E-1,0E0
8.42895E-1,0E0
8.41461E-1,0E0
8.26202E-1,0E0
8.25012E-1,0E0
7.85003E-1,0E0
7.40600E-1,0E0
7.76825E-1,0E0
8.05694E-1,0E0
7.87750E-1,0E0
7.29675E-1,0E0
7.62237E-1,0E0
7.93731E-1,0E0
7.88696E-1,0E0
7.75482E-1,0E0
7.83416E-1,0E0
7.85461E-1,0E0
7.71637E-1,0E0
7.63793E-1,0E0
7.09991E-1,0E0
6.52771E-1,0E0
5.86944E-1,0E0
7.0047E-1,0E0
7.77862E-1,0E0
7.63671E-1,0E0
7.65533E-1,0E0
7.72888E-1,0E0
7.90496E-1,0E0
7.84423E-1,0E0
8.20282E-1,0E0
8.08166E-1,0E0
7.67913E-1,0E0
7.59246E-1,0E0
8.13507E-1,0E0
8.30169E-1,0E0
7.72857E-1,0E0
7.83538E-1,0E0
7.99743E-1,0E0
8.42041E-1,0E0
8.40179E-1,0E0
8.35205E-1,0E0
8.17291E-1,0E0
7.95288E-1,0E0
8.05572E-1,0E0
8.09997E-1,0E0
7.20001E-1,0E0
6.14807E-1,0E0
4.95681E-1,0E0
3.86520E-1,0E0
3.07525E-1,0E0
2.79418E-1,0E0
3.40942E-1,0E0
4.35257E-1,0E0
4.82009E-1,0E0
4.92584E-1,0E0
4.96032E-1,0E0
5.19378E-1,0E0
6.03759E-1,0E0
6.45080E-1,0E0
6.73858E-1,0E0
6.22741E-1,0E0
6.53320E-1,0E0
6.66290E-1,0E0
7.05291E-1,0E0
6.97601E-1,0E0
6.72943E-1,0E0
6.84448E-1,0E0
7.04589E-1,0E0
7.25555E-1,0E0
7.05383E-1,0E0
7.03491E-1,0E0
6.91070E-1,0E0
7.04071E-1,0E0
7.04132E-1,0E0
6.87439E-1,0E0
6.90979E-1,0E0
6.83380E-1,0E0
6.92016E-1,0E0
6.63787E-1,0E0
6.70196E-1,0E0
6.59637E-1,0E0
6.61651E-1,0E0
6.39862E-1,0E0
6.25701E-1,0E0
6.18103E-1,0E0
6.05102E-1,0E0
6.03515E-1,0E0
5.79315E-1,0E0
5.76171E-1,0E0
5.63659E-1,0E0
5.98968E-1,0E0
5.73974E-1,0E0
5.64239E-1,0E0
6.15692E-1,0E0
6.80542E-1,0E0
7.20611E-1,0E0
7.27752E-1,0E0
7.57049E-1,0E0
7.72216E-1,0E0
7.612E-1,0E0
7.16033E-1,0E0
6.56738E-1,0E0
6.02539E-1,0E0
6.14563E-1,0E0
7.17651E-1,0E0
7.57202E-1,0E0
7.79205E-1,0E0
7.50915E-1,0E0
7.85125E-1,0E0
7.93609E-1,0E0
7.61077E-1,0E0
7.45513E-1,0E0
7.53967E-1,0E0
7.51251E-1,0E0
7.14538E-1,0E0
7.59063E-1,0E0
7.48748E-1,0E0
7.25280E-1,0E0
7.00805E-1,0E0
7.15484E-1,0E0
7.48168E-1,0E0
6.94427E-1,0E0
6.74499E-1,0E0
6.73706E-1,0E0
6.50238E-1,0E0
6.28631E-1,0E0
6.05468E-1,0E0
5.95397E-1,0E0
5.80963E-1,0E0
6.01959E-1,0E0
5.79132E-1,0E0
5.42663E-1,0E0
5.15472E-1,0E0
5.23223E-1,0E0
5.53466E-1,0E0
5.12359E-1,0E0
4.68078E-1,0E0
4.53842E-1,0E0
4.64767E-1,0E0
4.44427E-1,0E0
3.98117E-1,0E0
3.87558E-1,0E0
3.75946E-1,0E0
3.58917E-1,0E0
3.10791E-1,0E0
2.83905E-1,0E0
3.00460E-1,0E0
3.07678E-1,0E0
2.87460E-1,0E0
2.24433E-1,0E0
2.16590E-1,0E0
2.76611E-1,0E0
2.94540E-1,0E0
2.42530E-1,0E0
1.80252E-1,0E0
2.30575E-1,0E0
END

