CITIFILE A.01.00
#NA VERSION HP8753E.07.12
NAME FORMATTED
VAR FREQ MAG 201
DATA S[2,1] RI
SEG_LIST_BEGIN
SEG 30000 6000000000 201
SEG_LIST_END
BEGIN
3.39448E-5,0E0
1.27568E-2,0E0
2.47678E-2,0E0
3.88126E-2,0E0
4.88510E-2,0E0
5.73635E-2,0E0
7.68814E-2,0E0
8.83827E-2,0E0
8.80889E-2,0E0
8.10051E-2,0E0
1.21402E-1,0E0
1.26152E-1,0E0
1.03191E-1,0E0
8.65516E-2,0E0
7.56416E-2,0E0
9.34028E-2,0E0
1.11503E-1,0E0
1.24084E-1,0E0
1.57394E-1,0E0
1.81907E-1,0E0
1.99058E-1,0E0
2.21733E-1,0E0
2.03414E-1,0E0
2.33207E-1,0E0
2.58606E-1,0E0
2.75390E-1,0E0
2.79769E-1,0E0
2.69409E-1,0E0
2.99484E-1,0E0
3.42895E-1,0E0
3.11370E-1,0E0
3.02429E-1,0E0
3.22296E-1,0E0
3.59085E-1,0E0
3.48129E-1,0E0
3.38485E-1,0E0
3.34701E-1,0E0
3.39660E-1,0E0
3.50570E-1,0E0
3.43246E-1,0E0
3.19320E-1,0E0
2.84851E-1,0E0
2.80609E-1,0E0
2.67272E-1,0E0
2.25334E-1,0E0
1.80496E-1,0E0
1.84532E-1,0E0
2.25936E-1,0E0
3.11706E-1,0E0
3.56323E-1,0E0
3.89083E-1,0E0
4.27658E-1,0E0
4.18624E-1,0E0
4.34692E-1,0E0
4.65393E-1,0E0
4.44885E-1,0E0
4.16122E-1,0E0
4.14550E-1,0E0
4.36233E-1,0E0
4.14062E-1,0E0
3.74465E-1,0E0
3.36257E-1,0E0
2.77526E-1,0E0
3.52050E-1,0E0
4.36782E-1,0E0
4.43222E-1,0E0
3.66531E-1,0E0
3.25744E-1,0E0
3.44039E-1,0E0
3.39447E-1,0E0
3.08837E-1,0E0
2.79296E-1,0E0
2.90191E-1,0E0
2.80395E-1,0E0
2.68859E-1,0E0
2.41035E-1,0E0
2.34207E-1,0E0
2.32086E-1,0E0
2.53509E-1,0E0
2.53723E-1,0E0
2.24754E-1,0E0
2.08480E-1,0E0
1.91665E-1,0E0
2.00805E-1,0E0
1.76261E-1,0E0
1.28501E-1,0E0
8.47587E-2,0E0
5.88169E-2,0E0
9.05456E-2,0E0
1.66412E-1,0E0
2.53250E-1,0E0
3.39859E-1,0E0
4.75204E-1,0E0
5.85723E-1,0E0
6.35376E-1,0E0
6.51825E-1,0E0
6.28723E-1,0E0
5.86151E-1,0E0
6.05590E-1,0E0
5.97595E-1,0E0
5.46234E-1,0E0
4.59732E-1,0E0
4.04724E-1,0E0
4.11529E-1,0E0
4.59915E-1,0E0
4.76745E-1,0E0
4.45632E-1,0E0
4.33807E-1,0E0
4.49630E-1,0E0
4.87609E-1,0E0
4.73114E-1,0E0
4.26223E-1,0E0
4.15832E-1,0E0
4.33395E-1,0E0
4.59564E-1,0E0
4.55764E-1,0E0
4.21295E-1,0E0
4.14764E-1,0E0
4.33136E-1,0E0
4.53796E-1,0E0
4.50027E-1,0E0
4.39468E-1,0E0
4.25308E-1,0E0
4.51675E-1,0E0
4.65148E-1,0E0
4.69894E-1,0E0
4.55078E-1,0E0
4.36615E-1,0E0
4.63089E-1,0E0
5.06378E-1,0E0
4.86114E-1,0E0
4.41253E-1,0E0
4.12582E-1,0E0
4.28253E-1,0E0
4.53720E-1,0E0
4.49951E-1,0E0
4.12216E-1,0E0
3.80477E-1,0E0
3.45352E-1,0E0
2.94586E-1,0E0
2.35031E-1,0E0
1.46659E-1,0E0
7.33528E-2,0E0
3.49807E-2,0E0
3.79924E-2,0E0
5.69400E-2,0E0
9.03816E-2,0E0
1.27151E-1,0E0
1.16874E-1,0E0
8.21266E-2,0E0
6.78138E-2,0E0
8.45298E-2,0E0
1.10267E-1,0E0
1.17340E-1,0E0
1.27769E-1,0E0
1.59309E-1,0E0
1.79580E-1,0E0
1.76025E-1,0E0
1.70814E-1,0E0
1.86798E-1,0E0
2.12265E-1,0E0
2.32063E-1,0E0
2.28096E-1,0E0
2.13752E-1,0E0
2.18711E-1,0E0
2.53845E-1,0E0
2.84194E-1,0E0
2.59109E-1,0E0
2.29393E-1,0E0
2.46788E-1,0E0
2.72995E-1,0E0
2.75238E-1,0E0
2.61230E-1,0E0
2.65441E-1,0E0
2.85980E-1,0E0
2.89520E-1,0E0
2.92846E-1,0E0
2.86209E-1,0E0
2.87719E-1,0E0
2.91839E-1,0E0
2.95776E-1,0E0
2.81387E-1,0E0
2.59109E-1,0E0
2.70462E-1,0E0
2.80380E-1,0E0
2.63366E-1,0E0
2.57110E-1,0E0
2.75970E-1,0E0
2.79602E-1,0E0
2.69653E-1,0E0
2.77786E-1,0E0
2.79418E-1,0E0
2.80975E-1,0E0
2.78900E-1,0E0
2.71865E-1,0E0
2.83050E-1,0E0
2.82150E-1,0E0
2.81189E-1,0E0
2.73315E-1,0E0
2.76641E-1,0E0
2.86972E-1,0E0
END

