CITIFILE A.01.00
#NA VERSION HP8753E.07.12
NAME FORMATTED
VAR FREQ MAG 201
DATA S[2,2] RI
SEG_LIST_BEGIN
SEG 30000 6000000000 201
SEG_LIST_END
BEGIN
8.28466E0,0E0
-3.68007E1,0E0
-7.08203E1,0E0
-1.11367E2,0E0
-1.47140E2,0E0
1.77359E2,0E0
1.44679E2,0E0
1.03777E2,0E0
6.47070E1,0E0
3.26406E1,0E0
-3.64062E0,0E0
-4.11855E1,0E0
-7.97460E1,0E0
-1.12511E2,0E0
-1.49726E2,0E0
1.70304E2,0E0
1.35710E2,0E0
9.96406E1,0E0
6.33964E1,0E0
2.34384E1,0E0
-1.01445E1,0E0
-4.87812E1,0E0
-8.49687E1,0E0
-1.19515E2,0E0
-1.57046E2,0E0
1.64046E2,0E0
1.25664E2,0E0
9.46523E1,0E0
5.75605E1,0E0
1.63652E1,0E0
-2.00488E1,0E0
-5.35332E1,0E0
-8.92734E1,0E0
-1.29414E2,0E0
-1.64625E2,0E0
1.56164E2,0E0
1.19437E2,0E0
8.47304E1,0E0
5.00136E1,0E0
1.14008E1,0E0
-2.98710E1,0E0
-6.20703E1,0E0
-9.78398E1,0E0
-1.36218E2,0E0
-1.75789E2,0E0
1.48125E2,0E0
1.09359E2,0E0
7.04765E1,0E0
3.59726E1,0E0
-2.73010E0,0E0
-4.02324E1,0E0
-7.66601E1,0E0
-1.09976E2,0E0
-1.47828E2,0E0
1.73453E2,0E0
1.40117E2,0E0
1.05078E2,0E0
6.84062E1,0E0
2.90292E1,0E0
-4.57739E0,0E0
-4.16660E1,0E0
-8.02421E1,0E0
-1.17414E2,0E0
-1.55882E2,0E0
1.70164E2,0E0
1.34523E2,0E0
1.07886E2,0E0
7.79023E1,0E0
3.78515E1,0E0
1.19476E-1,0E0
-3.46484E1,0E0
-6.94960E1,0E0
-1.08562E2,0E0
-1.43578E2,0E0
1.78796E2,0E0
1.42945E2,0E0
1.06679E2,0E0
7.37070E1,0E0
3.81035E1,0E0
-3.97570E0,0E0
-3.74277E1,0E0
-7.15273E1,0E0
-1.04113E2,0E0
-1.45796E2,0E0
1.76492E2,0E0
1.38117E2,0E0
1.03046E2,0E0
6.61679E1,0E0
2.67695E1,0E0
-1.52465E1,0E0
-5.93828E1,0E0
-9.38203E1,0E0
-1.29023E2,0E0
-1.59914E2,0E0
1.70695E2,0E0
1.53921E2,0E0
1.38875E2,0E0
1.12574E2,0E0
7.77109E1,0E0
4.04003E1,0E0
4.09228E0,0E0
-2.76064E1,0E0
-5.70410E1,0E0
-9.12382E1,0E0
-1.29781E2,0E0
-1.68515E2,0E0
1.57226E2,0E0
1.24769E2,0E0
9.19609E1,0E0
5.55839E1,0E0
1.90947E1,0E0
-1.61748E1,0E0
-5.06054E1,0E0
-8.33085E1,0E0
-1.16875E2,0E0
-1.53390E2,0E0
1.69328E2,0E0
1.35148E2,0E0
1.02300E2,0E0
6.87734E1,0E0
3.50585E1,0E0
-2.14929E0,0E0
-3.86093E1,0E0
-7.31015E1,0E0
-1.04929E2,0E0
-1.40507E2,0E0
-1.77335E2,0E0
1.48539E2,0E0
1.15796E2,0E0
8.16054E1,0E0
4.52363E1,0E0
1.02636E1,0E0
-2.16191E1,0E0
-5.17460E1,0E0
-8.27343E1,0E0
-1.20496E2,0E0
-1.59203E2,0E0
1.72328E2,0E0
1.47773E2,0E0
1.14687E2,0E0
7.33554E1,0E0
3.21953E1,0E0
-5.07446E0,0E0
-3.68867E1,0E0
-7.40117E1,0E0
-1.12019E2,0E0
-1.55421E2,0E0
1.73203E2,0E0
1.52132E2,0E0
1.24644E2,0E0
8.74687E1,0E0
4.17656E1,0E0
4.97534E0,0E0
-2.77988E1,0E0
-5.90898E1,0E0
-9.61484E1,0E0
-1.34796E2,0E0
-1.73234E2,0E0
1.51640E2,0E0
1.26031E2,0E0
9.13984E1,0E0
4.99355E1,0E0
7.56665E0,0E0
-2.24082E1,0E0
-4.98417E1,0E0
-8.51328E1,0E0
-1.27054E2,0E0
-1.67882E2,0E0
1.59703E2,0E0
1.27710E2,0E0
9.81796E1,0E0
5.74257E1,0E0
1.60234E1,0E0
-1.72890E1,0E0
-4.81699E1,0E0
-8.26132E1,0E0
-1.23195E2,0E0
-1.61398E2,0E0
1.63171E2,0E0
1.28976E2,0E0
9.06562E1,0E0
5.10410E1,0E0
1.40844E1,0E0
-2.34755E1,0E0
-6.05332E1,0E0
-1.00339E2,0E0
-1.40562E2,0E0
-1.77765E2,0E0
1.45679E2,0E0
1.08761E2,0E0
6.52812E1,0E0
2.42363E1,0E0
-1.07119E1,0E0
-4.40429E1,0E0
-8.35234E1,0E0
-1.35343E2,0E0
1.79515E2,0E0
1.44820E2,0E0
1.12195E2,0E0
6.50703E1,0E0
3.44421E0,0E0
END

