CITIFILE A.01.00
#NA VERSION HP8753E.07.12
NAME FORMATTED
VAR FREQ MAG 201
DATA S[2,1] RI
SEG_LIST_BEGIN
SEG 30000 6000000000 201
SEG_LIST_END
BEGIN
1.76875E2,0E0
5.23281E1,0E0
1.76142E1,0E0
-2.1833E1,0E0
-6.03828E1,0E0
-9.52851E1,0E0
-1.29703E2,0E0
-1.74531E2,0E0
1.43945E2,0E0
1.20011E2,0E0
8.13984E1,0E0
3.2625E1,0E0
-1.04140E1,0E0
-3.87304E1,0E0
-5.69121E1,0E0
-7.89374E1,0E0
-1.18765E2,0E0
-1.39765E2,0E0
-1.76140E2,0E0
1.45281E2,0E0
1.07390E2,0E0
6.78125E1,0E0
2.85664E1,0E0
-4.02514E0,0E0
-3.97734E1,0E0
-7.93164E1,0E0
-1.19757E2,0E0
-1.52476E2,0E0
1.73679E2,0E0
1.32742E2,0E0
8.93515E1,0E0
5.87304E1,0E0
2.49306E1,0E0
-1.48261E1,0E0
-5.48046E1,0E0
-9.29531E1,0E0
-1.26933E2,0E0
-1.64187E2,0E0
1.58546E2,0E0
1.18566E2,0E0
7.81914E1,0E0
4.59843E1,0E0
1.04765E1,0E0
-2.60585E1,0E0
-6.34160E1,0E0
-8.67070E1,0E0
-1.03539E2,0E0
-1.22546E2,0E0
-1.58335E2,0E0
1.61195E2,0E0
1.21992E2,0E0
8.08906E1,0E0
4.11562E1,0E0
4.52490E0,0E0
-3.47558E1,0E0
-7.82187E1,0E0
-1.13308E2,0E0
-1.48171E2,0E0
1.73890E2,0E0
1.31984E2,0E0
9.43867E1,0E0
5.98203E1,0E0
3.08535E1,0E0
1.4271E1,0E0
-3.22988E1,0E0
-7.84609E1,0E0
-1.22480E2,0E0
-1.50156E2,0E0
1.76421E2,0E0
1.36132E2,0E0
9.97812E1,0E0
6.73906E1,0E0
3.60312E1,0E0
-2.10119E0,0E0
-3.76796E1,0E0
-7.09999E1,0E0
-1.01484E2,0E0
-1.32812E2,0E0
-1.67640E2,0E0
1.53343E2,0E0
1.14648E2,0E0
8.22109E1,0E0
5.07714E1,0E0
1.65009E1,0E0
-2.70419E1,0E0
-6.28398E1,0E0
-8.45195E1,0E0
-8.48242E1,0E0
-7.05078E1,0E0
-9.59101E1,0E0
-1.33437E2,0E0
-1.71585E2,0E0
1.45656E2,0E0
9.71093E1,0E0
4.80644E1,0E0
1.72210E0,0E0
-4.27011E1,0E0
-8.16093E1,0E0
-1.20937E2,0E0
-1.63164E2,0E0
1.54585E2,0E0
1.16734E2,0E0
8.8375E1,0E0
6.00703E1,0E0
2.76054E1,0E0
-1.43237E1,0E0
-4.97421E1,0E0
-8.36445E1,0E0
-1.15605E2,0E0
-1.54132E2,0E0
1.65445E2,0E0
1.30382E2,0E0
9.83359E1,0E0
6.63085E1,0E0
2.89209E1,0E0
-9.73291E0,0E0
-4.64023E1,0E0
-7.72656E1,0E0
-1.11074E2,0E0
-1.48679E2,0E0
1.74312E2,0E0
1.37640E2,0E0
1.04640E2,0E0
6.91640E1,0E0
3.28789E1,0E0
-6.40234E0,0E0
-4.39902E1,0E0
-7.86445E1,0E0
-1.11835E2,0E0
-1.52476E2,0E0
1.63164E2,0E0
1.26144E2,0E0
9.05351E1,0E0
5.73203E1,0E0
1.62470E1,0E0
-2.74433E1,0E0
-7.04140E1,0E0
-1.12511E2,0E0
-1.55796E2,0E0
1.59531E2,0E0
1.11480E2,0E0
6.38378E1,0E0
3.31113E1,0E0
3.23046E1,0E0
5.23808E1,0E0
4.35839E1,0E0
1.70205E1,0E0
-3.00947E1,0E0
-8.14062E1,0E0
-1.17664E2,0E0
-1.28507E2,0E0
-1.42523E2,0E0
-1.76054E2,0E0
1.49992E2,0E0
1.21121E2,0E0
8.83124E1,0E0
4.74550E1,0E0
6.99951E0,0E0
-2.32050E1,0E0
-5.43515E1,0E0
-8.85624E1,0E0
-1.29570E2,0E0
-1.68242E2,0E0
1.57640E2,0E0
1.28070E2,0E0
9.60351E1,0E0
5.21230E1,0E0
1.09502E1,0E0
-2.10253E1,0E0
-4.91230E1,0E0
-8.56640E1,0E0
-1.26488E2,0E0
-1.60875E2,0E0
1.66437E2,0E0
1.31843E2,0E0
9.33632E1,0E0
5.61894E1,0E0
2.04824E1,0E0
-1.57998E1,0E0
-5.07421E1,0E0
-8.87148E1,0E0
-1.26843E2,0E0
-1.6E2,0E0
1.68664E2,0E0
1.31531E2,0E0
9.35859E1,0E0
6.39160E1,0E0
2.92685E1,0E0
-8.56835E0,0E0
-4.38574E1,0E0
-7.76132E1,0E0
-1.12828E2,0E0
-1.49812E2,0E0
1.74687E2,0E0
1.39773E2,0E0
1.05543E2,0E0
6.82890E1,0E0
3.20195E1,0E0
-1.93774E0,0E0
-3.77929E1,0E0
-7.33046E1,0E0
END

