CITIFILE A.01.00
#NA VERSION HP8753E.07.12
NAME FORMATTED
VAR FREQ MAG 201
DATA S[1,2] RI
SEG_LIST_BEGIN
SEG 30000 6000000000 201
SEG_LIST_END
BEGIN
1.25527E2,0E0
4.85429E1,0E0
9.375E0,0E0
-2.27080E1,0E0
-7.81406E1,0E0
-1.20078E2,0E0
-1.69906E2,0E0
1.30289E2,0E0
6.46992E1,0E0
-1.68232E1,0E0
-5.49003E1,0E0
-1.10511E2,0E0
-1.65226E2,0E0
1.48765E2,0E0
9.47187E1,0E0
2.11523E1,0E0
-4.77246E1,0E0
-6.94062E1,0E0
-1.10875E2,0E0
1.75109E2,0E0
1.18441E2,0E0
5.93535E1,0E0
1.68632E1,0E0
-2.34628E1,0E0
-6.66289E1,0E0
-1.09605E2,0E0
-1.51695E2,0E0
1.72164E2,0E0
1.29476E2,0E0
8.35312E1,0E0
4.28574E1,0E0
7.22351E-1,0E0
-3.88515E1,0E0
-7.84023E1,0E0
-1.21761E2,0E0
-1.67414E2,0E0
1.62117E2,0E0
1.43554E2,0E0
1.00898E2,0E0
5.54570E1,0E0
1.68662E1,0E0
-1.83046E1,0E0
-6.47539E1,0E0
-1.15945E2,0E0
-1.51562E2,0E0
-1.30312E2,0E0
-1.17476E2,0E0
-1.69085E2,0E0
1.53625E2,0E0
1.15574E2,0E0
6.80585E1,0E0
2.63857E1,0E0
-8.95263E0,0E0
-5.24687E1,0E0
-9.83593E1,0E0
-1.36304E2,0E0
-1.74281E2,0E0
1.46476E2,0E0
1.05886E2,0E0
6.85820E1,0E0
2.68652E1,0E0
-7.50244E0,0E0
-1.93730E1,0E0
-4.59902E1,0E0
-1.01070E2,0E0
-1.51656E2,0E0
1.69328E2,0E0
1.33851E2,0E0
9.31601E1,0E0
5.37167E1,0E0
1.39731E1,0E0
-2.37539E1,0E0
-5.97636E1,0E0
-9.10468E1,0E0
-1.27410E2,0E0
-1.60757E2,0E0
1.68554E2,0E0
1.40242E2,0E0
1.06054E2,0E0
6.30156E1,0E0
3.43867E1,0E0
4.80639E0,0E0
-2.95752E1,0E0
-7.39140E1,0E0
-1.14015E2,0E0
-1.51789E2,0E0
-1.78109E2,0E0
1.76203E2,0E0
-1.72828E2,0E0
1.55765E2,0E0
1.06101E2,0E0
5.78359E1,0E0
5.87622E0,0E0
-4.38710E1,0E0
-9.58945E1,0E0
-1.39382E2,0E0
-1.73117E2,0E0
1.54914E2,0E0
1.18425E2,0E0
8.11015E1,0E0
4.90175E1,0E0
4.64472E1,0E0
4.18613E1,0E0
-1.04370E-1,0E0
-5.66816E1,0E0
-9.81796E1,0E0
-1.29062E2,0E0
-1.60195E2,0E0
1.59203E2,0E0
1.1375E2,0E0
6.91796E1,0E0
3.01513E1,0E0
-6.02197E0,0E0
-4.11718E1,0E0
-7.78359E1,0E0
-1.17363E2,0E0
-1.55242E2,0E0
1.72648E2,0E0
1.39632E2,0E0
9.96913E1,0E0
5.87910E1,0E0
2.04228E1,0E0
-1.46503E1,0E0
-5.24355E1,0E0
-9.32812E1,0E0
-1.33992E2,0E0
-1.72695E2,0E0
1.50031E2,0E0
1.13660E2,0E0
7.23476E1,0E0
2.82919E1,0E0
-1.11552E1,0E0
-4.77343E1,0E0
-8.52929E1,0E0
-1.29906E2,0E0
-1.76968E2,0E0
1.39687E2,0E0
9.84648E1,0E0
5.73437E1,0E0
1.27041E1,0E0
-3.19335E1,0E0
-6.47695E1,0E0
-5.67656E1,0E0
-2.27832E1,0E0
-4.63789E1,0E0
-7.62656E1,0E0
-1.17933E2,0E0
-1.74218E2,0E0
1.33585E2,0E0
1.14296E2,0E0
1.06617E2,0E0
7.67265E1,0E0
4.55312E1,0E0
1.00341E1,0E0
-2.43574E1,0E0
-6.16289E1,0E0
-9.77578E1,0E0
-1.35429E2,0E0
-1.66945E2,0E0
1.70007E2,0E0
1.3625E2,0E0
9.41328E1,0E0
5.21523E1,0E0
1.52817E1,0E0
-2.16875E1,0E0
-6.42968E1,0E0
-1.07386E2,0E0
-1.44226E2,0E0
-1.77945E2,0E0
1.44828E2,0E0
1.1025E2,0E0
6.95703E1,0E0
3.23125E1,0E0
1.74408E0,0E0
-3.36582E1,0E0
-7.33593E1,0E0
-1.13484E2,0E0
-1.47156E2,0E0
1.76390E2,0E0
1.37328E2,0E0
9.81562E1,0E0
6.26660E1,0E0
2.87138E1,0E0
-1.05293E1,0E0
-4.91738E1,0E0
-8.82578E1,0E0
-1.24773E2,0E0
-1.58546E2,0E0
1.63156E2,0E0
1.25418E2,0E0
8.53203E1,0E0
4.66093E1,0E0
6.34594E0,0E0
-3.29199E1,0E0
-6.95703E1,0E0
-1.05085E2,0E0
-1.45468E2,0E0
1.74539E2,0E0
1.39781E2,0E0
1.05273E2,0E0
6.33535E1,0E0
END

