CITIFILE A.01.00
#NA VERSION HP8753E.07.12
NAME FORMATTED
VAR FREQ MAG 201
DATA S[2,2] RI
SEG_LIST_BEGIN
SEG 30000 6000000000 201
SEG_LIST_END
BEGIN
1.03350E0,0E0
1.00573E0,0E0
9.64355E-1,0E0
9.39147E-1,0E0
9.26818E-1,0E0
8.54064E-1,0E0
8.21960E-1,0E0
5.82061E-1,0E0
2.42561E-1,0E0
8.67538E-2,0E0
6.88171E-1,0E0
8.00048E-1,0E0
7.91992E-1,0E0
7.69470E-1,0E0
7.16735E-1,0E0
6.03515E-1,0E0
7.00988E-1,0E0
7.38006E-1,0E0
6.40502E-1,0E0
5.99426E-1,0E0
6.62750E-1,0E0
7.63031E-1,0E0
7.70874E-1,0E0
7.5E-1,0E0
7.93670E-1,0E0
7.93121E-1,0E0
7.45697E-1,0E0
7.45452E-1,0E0
7.56530E-1,0E0
7.03399E-1,0E0
6.17614E-1,0E0
5.87097E-1,0E0
4.81079E-1,0E0
3.34747E-1,0E0
1.73744E-1,0E0
5.41381E-2,0E0
2.01149E-1,0E0
3.89205E-1,0E0
4.24270E-1,0E0
4.55703E-1,0E0
5.38513E-1,0E0
6.16516E-1,0E0
6.91345E-1,0E0
7.50732E-1,0E0
6.97662E-1,0E0
7.30316E-1,0E0
7.41088E-1,0E0
7.5354E-1,0E0
7.75207E-1,0E0
7.91015E-1,0E0
7.6651E-1,0E0
7.35504E-1,0E0
7.73590E-1,0E0
8.12774E-1,0E0
7.99682E-1,0E0
7.41088E-1,0E0
7.78778E-1,0E0
8.14209E-1,0E0
7.99652E-1,0E0
7.87872E-1,0E0
7.91259E-1,0E0
7.79571E-1,0E0
7.40722E-1,0E0
7.12005E-1,0E0
6.70105E-1,0E0
6.27685E-1,0E0
5.82489E-1,0E0
6.06231E-1,0E0
5.89691E-1,0E0
5.07995E-1,0E0
5.03509E-1,0E0
5.45867E-1,0E0
6.28814E-1,0E0
6.84570E-1,0E0
7.55493E-1,0E0
7.66357E-1,0E0
7.39959E-1,0E0
7.45575E-1,0E0
8.08044E-1,0E0
8.09051E-1,0E0
7.53418E-1,0E0
7.55706E-1,0E0
7.76825E-1,0E0
8.07495E-1,0E0
8.09295E-1,0E0
8.05511E-1,0E0
7.96447E-1,0E0
7.79418E-1,0E0
7.86712E-1,0E0
7.77893E-1,0E0
6.69250E-1,0E0
5.56732E-1,0E0
5.65887E-1,0E0
6.41540E-1,0E0
6.66961E-1,0E0
7.02179E-1,0E0
7.01141E-1,0E0
7.58026E-1,0E0
7.49786E-1,0E0
7.26715E-1,0E0
6.68029E-1,0E0
5.74432E-1,0E0
5.83648E-1,0E0
5.69946E-1,0E0
5.54534E-1,0E0
4.78683E-1,0E0
3.92181E-1,0E0
2.31239E-1,0E0
1.33010E-1,0E0
2.28096E-1,0E0
3.62106E-1,0E0
4.7966E-1,0E0
5.54229E-1,0E0
6.10321E-1,0E0
6.17187E-1,0E0
6.24969E-1,0E0
6.20575E-1,0E0
6.36077E-1,0E0
6.42456E-1,0E0
6.27349E-1,0E0
6.12701E-1,0E0
6.03332E-1,0E0
6.16455E-1,0E0
5.98083E-1,0E0
5.94757E-1,0E0
5.80596E-1,0E0
5.77728E-1,0E0
5.63293E-1,0E0
5.45898E-1,0E0
5.23315E-1,0E0
4.9617E-1,0E0
4.87915E-1,0E0
4.59487E-1,0E0
4.44946E-1,0E0
4.32342E-1,0E0
4.55230E-1,0E0
4.69223E-1,0E0
5.13977E-1,0E0
5.89050E-1,0E0
6.58996E-1,0E0
6.89910E-1,0E0
6.96380E-1,0E0
7.18231E-1,0E0
7.31781E-1,0E0
7.05902E-1,0E0
6.64032E-1,0E0
6.04309E-1,0E0
5.41626E-1,0E0
5.69519E-1,0E0
6.71203E-1,0E0
7.08587E-1,0E0
7.24273E-1,0E0
7.14874E-1,0E0
7.49725E-1,0E0
7.57598E-1,0E0
7.20825E-1,0E0
7.14874E-1,0E0
7.28820E-1,0E0
7.06573E-1,0E0
6.76391E-1,0E0
7.05261E-1,0E0
6.75170E-1,0E0
6.31774E-1,0E0
6.22772E-1,0E0
6.51825E-1,0E0
6.79016E-1,0E0
6.35711E-1,0E0
6.19659E-1,0E0
6.25976E-1,0E0
6.10717E-1,0E0
6.01348E-1,0E0
5.80017E-1,0E0
5.69305E-1,0E0
5.54718E-1,0E0
5.76446E-1,0E0
5.46020E-1,0E0
5.02685E-1,0E0
4.77447E-1,0E0
4.83261E-1,0E0
5.08483E-1,0E0
4.6875E-1,0E0
4.18106E-1,0E0
3.96377E-1,0E0
3.94622E-1,0E0
3.72421E-1,0E0
3.31710E-1,0E0
3.14422E-1,0E0
2.92495E-1,0E0
2.55264E-1,0E0
2.00065E-1,0E0
1.70463E-1,0E0
1.9207E-1,0E0
2.22473E-1,0E0
1.91574E-1,0E0
1.36100E-1,0E0
1.59652E-1,0E0
2.2509E-1,0E0
2.24029E-1,0E0
1.63948E-1,0E0
1.45591E-1,0E0
2.35023E-1,0E0
END

