CITIFILE A.01.00
#NA VERSION HP8753E.07.12
NAME FORMATTED
VAR FREQ MAG 201
DATA S[1,2] RI
SEG_LIST_BEGIN
SEG 30000 6000000000 201
SEG_LIST_END
BEGIN
2.44841E-4,0E0
5.42831E-2,0E0
1.09245E-1,0E0
1.73561E-1,0E0
2.57568E-1,0E0
3.46298E-1,0E0
5.49499E-1,0E0
7.20184E-1,0E0
8.78814E-1,0E0
7.74963E-1,0E0
5.98999E-1,0E0
5.39428E-1,0E0
4.46807E-1,0E0
4.08401E-1,0E0
4.42260E-1,0E0
4.74990E-1,0E0
2.47100E-1,0E0
2.15019E-1,0E0
3.72406E-1,0E0
4.83367E-1,0E0
4.90615E-1,0E0
4.21051E-1,0E0
3.79409E-1,0E0
3.77914E-1,0E0
3.92684E-1,0E0
3.94180E-1,0E0
3.78280E-1,0E0
3.96286E-1,0E0
4.24545E-1,0E0
4.33380E-1,0E0
4.05227E-1,0E0
4.01886E-1,0E0
3.78143E-1,0E0
3.74115E-1,0E0
3.61022E-1,0E0
3.09112E-1,0E0
2.32917E-1,0E0
2.45369E-1,0E0
3.12698E-1,0E0
2.84683E-1,0E0
2.56301E-1,0E0
2.50198E-1,0E0
2.44903E-1,0E0
1.75338E-1,0E0
1.12716E-1,0E0
3.28578E-2,0E0
1.26297E-1,0E0
2.00668E-1,0E0
2.17971E-1,0E0
2.91427E-1,0E0
3.32199E-1,0E0
3.20602E-1,0E0
3.56323E-1,0E0
3.94317E-1,0E0
3.90838E-1,0E0
3.59451E-1,0E0
3.62518E-1,0E0
3.62716E-1,0E0
3.42865E-1,0E0
3.33252E-1,0E0
3.03604E-1,0E0
2.40226E-1,0E0
2.13241E-1,0E0
3.59237E-1,0E0
4.44168E-1,0E0
4.03305E-1,0E0
3.55499E-1,0E0
3.41156E-1,0E0
3.39035E-1,0E0
3.14926E-1,0E0
2.96615E-1,0E0
2.60711E-1,0E0
2.33306E-1,0E0
2.12616E-1,0E0
2.06497E-1,0E0
1.85112E-1,0E0
1.69632E-1,0E0
1.69059E-1,0E0
1.88262E-1,0E0
1.75972E-1,0E0
1.53907E-1,0E0
1.62048E-1,0E0
1.79214E-1,0E0
1.77360E-1,0E0
1.55098E-1,0E0
1.22467E-1,0E0
8.61816E-2,0E0
6.08997E-2,0E0
9.26971E-2,0E0
1.90452E-1,0E0
2.74719E-1,0E0
3.52951E-1,0E0
3.94302E-1,0E0
4.09332E-1,0E0
3.61984E-1,0E0
2.98324E-1,0E0
2.33940E-1,0E0
2.22366E-1,0E0
2.06909E-1,0E0
1.80107E-1,0E0
1.33880E-1,0E0
9.22470E-2,0E0
1.69357E-1,0E0
2.85873E-1,0E0
3.33435E-1,0E0
2.90664E-1,0E0
2.84759E-1,0E0
3.27774E-1,0E0
3.90472E-1,0E0
4.25308E-1,0E0
4.13955E-1,0E0
3.78265E-1,0E0
3.61236E-1,0E0
3.64791E-1,0E0
3.69613E-1,0E0
3.78448E-1,0E0
3.50997E-1,0E0
3.41918E-1,0E0
3.66378E-1,0E0
3.99276E-1,0E0
4.07257E-1,0E0
3.82507E-1,0E0
3.88382E-1,0E0
4.06829E-1,0E0
4.26498E-1,0E0
4.04876E-1,0E0
3.94897E-1,0E0
3.80233E-1,0E0
3.88015E-1,0E0
4.09088E-1,0E0
3.85452E-1,0E0
3.53149E-1,0E0
3.27713E-1,0E0
3.41293E-1,0E0
3.41033E-1,0E0
3.13171E-1,0E0
2.58743E-1,0E0
2.16819E-1,0E0
1.80015E-1,0E0
1.42852E-1,0E0
9.15336E-2,0E0
4.53414E-2,0E0
1.88512E-2,0E0
2.80885E-2,0E0
5.04760E-2,0E0
7.43370E-2,0E0
1.06742E-1,0E0
1.26968E-1,0E0
9.01298E-2,0E0
5.94539E-2,0E0
6.46209E-2,0E0
8.45718E-2,0E0
9.77020E-2,0E0
1.11606E-1,0E0
1.24641E-1,0E0
1.34841E-1,0E0
1.44554E-1,0E0
1.44630E-1,0E0
1.38244E-1,0E0
1.50764E-1,0E0
1.96586E-1,0E0
2.35000E-1,0E0
2.45063E-1,0E0
2.55767E-1,0E0
2.78289E-1,0E0
3.16741E-1,0E0
2.95883E-1,0E0
2.78015E-1,0E0
2.79953E-1,0E0
2.81707E-1,0E0
2.97180E-1,0E0
2.99987E-1,0E0
2.85202E-1,0E0
2.83691E-1,0E0
3.12515E-1,0E0
3.33511E-1,0E0
3.24859E-1,0E0
3.22601E-1,0E0
3.34671E-1,0E0
3.60946E-1,0E0
3.42697E-1,0E0
3.34045E-1,0E0
3.51516E-1,0E0
3.70391E-1,0E0
3.76876E-1,0E0
3.62640E-1,0E0
3.57177E-1,0E0
3.59375E-1,0E0
3.78845E-1,0E0
3.91113E-1,0E0
3.91861E-1,0E0
3.98651E-1,0E0
3.86505E-1,0E0
3.74633E-1,0E0
3.50158E-1,0E0
3.51013E-1,0E0
3.57620E-1,0E0
3.27835E-1,0E0
3.01940E-1,0E0
3.03939E-1,0E0
3.06808E-1,0E0
END

