CITIFILE A.01.00
#NA VERSION HP8753E.07.12
NAME FORMATTED
VAR FREQ MAG 201
DATA S[1,1] RI
SEG_LIST_BEGIN
SEG 30000 6000000000 201
SEG_LIST_END
BEGIN
1.02893E0,0E0
1.00152E0,0E0
9.59808E-1,0E0
9.08447E-1,0E0
9.33990E-1,0E0
8.54370E-1,0E0
8.12713E-1,0E0
5.82702E-1,0E0
2.33810E-1,0E0
2.87735E-1,0E0
6.94458E-1,0E0
8.00506E-1,0E0
8.04473E-1,0E0
7.71087E-1,0E0
7.03674E-1,0E0
4.7789E-1,0E0
6.15478E-1,0E0
6.13983E-1,0E0
4.22653E-1,0E0
3.06610E-1,0E0
5.04241E-1,0E0
7.23815E-1,0E0
7.32177E-1,0E0
7.08587E-1,0E0
7.22198E-1,0E0
7.58667E-1,0E0
7.78167E-1,0E0
7.41821E-1,0E0
7.64099E-1,0E0
7.93762E-1,0E0
7.43499E-1,0E0
7.44415E-1,0E0
7.62420E-1,0E0
7.79602E-1,0E0
7.55676E-1,0E0
7.76611E-1,0E0
7.93823E-1,0E0
7.81555E-1,0E0
7.82135E-1,0E0
7.83966E-1,0E0
7.46032E-1,0E0
7.19543E-1,0E0
7.27935E-1,0E0
6.23870E-1,0E0
5.41564E-1,0E0
5.25024E-1,0E0
5.44921E-1,0E0
5.77728E-1,0E0
5.82397E-1,0E0
6.21673E-1,0E0
6.71539E-1,0E0
7.12280E-1,0E0
6.80603E-1,0E0
7.05444E-1,0E0
7.82226E-1,0E0
7.57385E-1,0E0
7.32452E-1,0E0
7.48718E-1,0E0
8.06884E-1,0E0
7.69897E-1,0E0
7.46734E-1,0E0
7.03094E-1,0E0
5.34423E-1,0E0
2.72018E-1,0E0
5.26214E-1,0E0
6.61224E-1,0E0
6.30798E-1,0E0
6.72454E-1,0E0
7.43316E-1,0E0
7.50122E-1,0E0
6.84417E-1,0E0
6.46942E-1,0E0
6.98822E-1,0E0
6.93023E-1,0E0
6.90460E-1,0E0
6.56341E-1,0E0
6.27380E-1,0E0
5.93414E-1,0E0
6.08917E-1,0E0
6.51367E-1,0E0
5.86792E-1,0E0
5.57067E-1,0E0
5.76110E-1,0E0
6.81152E-1,0E0
7.12677E-1,0E0
6.91284E-1,0E0
6.74743E-1,0E0
6.68396E-1,0E0
6.73828E-1,0E0
6.25976E-1,0E0
4.85168E-1,0E0
2.73651E-1,0E0
3.00827E-1,0E0
4.25643E-1,0E0
5.65429E-1,0E0
6.05835E-1,0E0
5.99609E-1,0E0
6.06506E-1,0E0
6.60461E-1,0E0
6.63147E-1,0E0
6.39038E-1,0E0
6.00647E-1,0E0
5.32409E-1,0E0
3.85635E-1,0E0
3.94546E-1,0E0
5.01220E-1,0E0
5.29602E-1,0E0
5.18737E-1,0E0
5.29693E-1,0E0
5.50811E-1,0E0
5.32318E-1,0E0
5.17639E-1,0E0
5.24414E-1,0E0
5.24749E-1,0E0
5.02624E-1,0E0
4.82345E-1,0E0
4.73159E-1,0E0
4.77645E-1,0E0
4.75036E-1,0E0
4.80346E-1,0E0
4.89685E-1,0E0
5.06042E-1,0E0
5.26611E-1,0E0
5.76080E-1,0E0
5.77850E-1,0E0
5.70526E-1,0E0
5.82153E-1,0E0
6.04309E-1,0E0
6.21917E-1,0E0
5.97991E-1,0E0
5.51025E-1,0E0
5.28137E-1,0E0
5.06378E-1,0E0
5.27404E-1,0E0
5.09918E-1,0E0
4.92111E-1,0E0
4.61334E-1,0E0
4.30419E-1,0E0
3.90564E-1,0E0
3.50250E-1,0E0
3.64242E-1,0E0
3.82049E-1,0E0
3.94409E-1,0E0
3.63784E-1,0E0
3.66912E-1,0E0
4.11788E-1,0E0
3.94714E-1,0E0
2.97470E-1,0E0
2.52273E-1,0E0
2.92175E-1,0E0
2.98004E-1,0E0
2.43553E-1,0E0
2.11715E-1,0E0
2.58926E-1,0E0
2.92892E-1,0E0
2.86727E-1,0E0
2.39662E-1,0E0
2.48901E-1,0E0
2.80929E-1,0E0
2.82943E-1,0E0
2.26158E-1,0E0
1.70639E-1,0E0
1.79237E-1,0E0
1.96228E-1,0E0
1.88682E-1,0E0
1.53961E-1,0E0
1.36795E-1,0E0
1.71653E-1,0E0
2.09564E-1,0E0
2.24067E-1,0E0
1.90040E-1,0E0
1.71989E-1,0E0
2.00698E-1,0E0
2.07183E-1,0E0
2.01950E-1,0E0
1.75972E-1,0E0
1.98204E-1,0E0
2.13897E-1,0E0
2.20192E-1,0E0
2.26280E-1,0E0
2.20138E-1,0E0
2.31285E-1,0E0
2.28607E-1,0E0
2.34428E-1,0E0
2.39036E-1,0E0
2.36946E-1,0E0
2.75848E-1,0E0
3.18695E-1,0E0
3.08548E-1,0E0
2.81616E-1,0E0
2.95684E-1,0E0
3.25103E-1,0E0
3.40393E-1,0E0
3.34884E-1,0E0
3.42361E-1,0E0
3.94073E-1,0E0
4.20700E-1,0E0
4.19464E-1,0E0
4.00039E-1,0E0
4.05761E-1,0E0
4.82116E-1,0E0
END

