CITIFILE A.01.00
#NA VERSION HP8753E.07.12
NAME FORMATTED
VAR FREQ MAG 201
DATA S[2,1] RI
SEG_LIST_BEGIN
SEG 30000 6000000000 201
SEG_LIST_END
BEGIN
1.16035E-4,0E0
5.46703E-2,0E0
1.10111E-1,0E0
1.75018E-1,0E0
2.59521E-1,0E0
3.48648E-1,0E0
5.52337E-1,0E0
7.25769E-1,0E0
8.85803E-1,0E0
7.88818E-1,0E0
6.02905E-1,0E0
5.45166E-1,0E0
4.55520E-1,0E0
4.09851E-1,0E0
4.46975E-1,0E0
4.80712E-1,0E0
2.50091E-1,0E0
2.18742E-1,0E0
3.77868E-1,0E0
4.90249E-1,0E0
4.78271E-1,0E0
4.27383E-1,0E0
3.89984E-1,0E0
3.83956E-1,0E0
3.90884E-1,0E0
3.97171E-1,0E0
3.98315E-1,0E0
3.84185E-1,0E0
4.26834E-1,0E0
4.57946E-1,0E0
4.02648E-1,0E0
3.92868E-1,0E0
3.83712E-1,0E0
3.92639E-1,0E0
3.45428E-1,0E0
3.15124E-1,0E0
2.47634E-1,0E0
2.44018E-1,0E0
3.09310E-1,0E0
2.94647E-1,0E0
2.612E-1,0E0
2.48733E-1,0E0
2.50137E-1,0E0
1.77902E-1,0E0
1.13349E-1,0E0
3.77159E-2,0E0
1.16947E-1,0E0
1.97013E-1,0E0
2.35282E-1,0E0
2.85369E-1,0E0
3.17642E-1,0E0
3.52020E-1,0E0
3.55865E-1,0E0
3.73321E-1,0E0
4.02435E-1,0E0
3.81530E-1,0E0
3.51318E-1,0E0
3.49685E-1,0E0
3.75061E-1,0E0
3.37844E-1,0E0
2.93060E-1,0E0
2.50503E-1,0E0
2.21443E-1,0E0
3.53363E-1,0E0
4.25735E-1,0E0
4.29168E-1,0E0
3.65951E-1,0E0
3.27575E-1,0E0
3.35983E-1,0E0
3.31069E-1,0E0
2.99621E-1,0E0
2.52090E-1,0E0
2.41760E-1,0E0
2.20840E-1,0E0
2.04772E-1,0E0
1.81983E-1,0E0
1.78939E-1,0E0
1.78146E-1,0E0
1.82479E-1,0E0
1.76582E-1,0E0
1.59347E-1,0E0
1.64466E-1,0E0
1.70974E-1,0E0
1.84341E-1,0E0
1.62864E-1,0E0
1.21448E-1,0E0
8.48541E-2,0E0
6.42623E-2,0E0
9.46312E-2,0E0
1.81427E-1,0E0
2.84439E-1,0E0
3.65417E-1,0E0
4.05258E-1,0E0
3.96072E-1,0E0
3.76541E-1,0E0
3.09204E-1,0E0
2.42408E-1,0E0
2.14592E-1,0E0
2.19833E-1,0E0
1.86851E-1,0E0
1.32820E-1,0E0
9.34982E-2,0E0
1.74781E-1,0E0
2.94784E-1,0E0
3.30993E-1,0E0
3.01635E-1,0E0
2.95730E-1,0E0
3.34106E-1,0E0
3.92517E-1,0E0
4.42459E-1,0E0
4.30053E-1,0E0
3.83544E-1,0E0
3.66195E-1,0E0
3.72070E-1,0E0
3.85192E-1,0E0
3.84811E-1,0E0
3.58581E-1,0E0
3.53256E-1,0E0
3.76831E-1,0E0
4.01413E-1,0E0
4.08157E-1,0E0
4.02832E-1,0E0
3.94607E-1,0E0
4.19479E-1,0E0
4.29367E-1,0E0
4.23873E-1,0E0
4.02496E-1,0E0
3.85559E-1,0E0
4.02130E-1,0E0
4.24194E-1,0E0
3.93219E-1,0E0
3.59314E-1,0E0
3.39294E-1,0E0
3.48495E-1,0E0
3.53164E-1,0E0
3.28643E-1,0E0
2.71560E-1,0E0
2.25364E-1,0E0
1.87927E-1,0E0
1.49437E-1,0E0
9.78546E-2,0E0
4.78096E-2,0E0
1.89199E-2,0E0
2.87380E-2,0E0
5.18093E-2,0E0
7.64160E-2,0E0
1.09050E-1,0E0
1.29081E-1,0E0
9.64736E-2,0E0
6.12144E-2,0E0
6.43501E-2,0E0
8.50257E-2,0E0
1.04003E-1,0E0
1.11930E-1,0E0
1.23447E-1,0E0
1.46011E-1,0E0
1.51474E-1,0E0
1.43188E-1,0E0
1.41433E-1,0E0
1.64817E-1,0E0
2.01248E-1,0E0
2.39730E-1,0E0
2.59231E-1,0E0
2.64907E-1,0E0
2.76641E-1,0E0
3.11111E-1,0E0
3.19015E-1,0E0
2.91030E-1,0E0
2.72064E-1,0E0
2.93228E-1,0E0
3.13461E-1,0E0
3.04245E-1,0E0
2.90527E-1,0E0
3.05770E-1,0E0
3.28765E-1,0E0
3.39584E-1,0E0
3.35525E-1,0E0
3.35662E-1,0E0
3.47213E-1,0E0
3.56430E-1,0E0
3.51562E-1,0E0
3.42392E-1,0E0
3.44833E-1,0E0
3.68927E-1,0E0
3.82659E-1,0E0
3.58566E-1,0E0
3.46130E-1,0E0
3.65753E-1,0E0
3.83224E-1,0E0
3.85360E-1,0E0
4.01718E-1,0E0
4.06219E-1,0E0
3.93631E-1,0E0
3.76312E-1,0E0
3.59024E-1,0E0
3.63357E-1,0E0
3.49090E-1,0E0
3.32855E-1,0E0
3.15261E-1,0E0
3.06701E-1,0E0
3.07785E-1,0E0
END

