CITIFILE A.01.00
#NA VERSION HP8753E.07.12
NAME FORMATTED
VAR FREQ MAG 201
DATA S[2,1] RI
SEG_LIST_BEGIN
SEG 30000 6000000000 201
SEG_LIST_END
BEGIN
5.37187E1,0E0
4.96601E1,0E0
1.17773E1,0E0
-1.98291E1,0E0
-7.38867E1,0E0
-1.14882E2,0E0
-1.63E2,0E0
1.37968E2,0E0
7.35585E1,0E0
-7.48730E0,0E0
-4.36601E1,0E0
-9.83710E1,0E0
-1.52578E2,0E0
1.63039E2,0E0
1.10082E2,0E0
3.78867E1,0E0
-3.17705E1,0E0
-5.06308E1,0E0
-9.19413E1,0E0
-1.64156E2,0E0
1.39710E2,0E0
8.31601E1,0E0
4.16074E1,0E0
-6.88018E-1,0E0
-4.03261E1,0E0
-8.18710E1,0E0
-1.25175E2,0E0
-1.60234E2,0E0
1.60789E2,0E0
1.15367E2,0E0
7.11171E1,0E0
3.55117E1,0E0
-3.30554E0,0E0
-4.53261E1,0E0
-8.49218E1,0E0
-1.2975E2,0E0
-1.58875E2,0E0
-1.79656E2,0E0
1.42257E2,0E0
9.76640E1,0E0
5.71406E1,0E0
2.63281E1,0E0
-2.0375E1,0E0
-7.05976E1,0E0
-1.00886E2,0E0
-9.99296E1,0E0
-6.95351E1,0E0
-1.13843E2,0E0
-1.57703E2,0E0
1.64882E2,0E0
1.22953E2,0E0
8.15234E1,0E0
4.12949E1,0E0
3.05969E0,0E0
-3.72226E1,0E0
-8.21835E1,0E0
-1.17476E2,0E0
-1.52101E2,0E0
1.68390E2,0E0
1.25875E2,0E0
8.96875E1,0E0
5.86542E1,0E0
4.21269E1,0E0
1.80449E1,0E0
-3.32890E1,0E0
-8.11796E1,0E0
-1.25644E2,0E0
-1.57617E2,0E0
1.66984E2,0E0
1.25343E2,0E0
8.50937E1,0E0
4.99667E1,0E0
1.84052E1,0E0
-1.70224E1,0E0
-5.11328E1,0E0
-8.17148E1,0E0
-1.10511E2,0E0
-1.41765E2,0E0
-1.75617E2,0E0
1.47695E2,0E0
1.15480E2,0E0
8.76718E1,0E0
5.38496E1,0E0
1.61757E1,0E0
-2.99013E1,0E0
-6.57421E1,0E0
-8.78281E1,0E0
-9.36757E1,0E0
-8.42343E1,0E0
-1.13148E2,0E0
-1.58476E2,0E0
1.51523E2,0E0
9.92187E1,0E0
5.14609E1,0E0
3.15856E0,0E0
-4.15156E1,0E0
-7.75078E1,0E0
-1.04164E2,0E0
-1.40078E2,0E0
-1.78578E2,0E0
1.51406E2,0E0
1.50781E2,0E0
1.48328E2,0E0
1.04425E2,0E0
5.23378E1,0E0
9.87939E0,0E0
-1.88691E1,0E0
-5.16113E1,0E0
-8.83359E1,0E0
-1.32960E2,0E0
-1.77953E2,0E0
1.43929E2,0E0
1.09554E2,0E0
7.66523E1,0E0
3.96757E1,0E0
1.22222E0,0E0
-3.54492E1,0E0
-6.625E1,0E0
-9.95898E1,0E0
-1.37945E2,0E0
-1.75703E2,0E0
1.45882E2,0E0
1.11558E2,0E0
7.44726E1,0E0
3.59531E1,0E0
-4.71191E0,0E0
-4.27812E1,0E0
-7.82382E1,0E0
-1.12687E2,0E0
-1.54343E2,0E0
1.61968E2,0E0
1.25644E2,0E0
8.90742E1,0E0
5.33105E1,0E0
9.17187E0,0E0
-3.62031E1,0E0
-7.96601E1,0E0
-1.20093E2,0E0
-1.60109E2,0E0
1.56656E2,0E0
1.12742E2,0E0
7.77929E1,0E0
8.88828E1,0E0
1.23050E2,0E0
1.02394E2,0E0
7.30859E1,0E0
3.25156E1,0E0
-2.20166E1,0E0
-7.28164E1,0E0
-9.51718E1,0E0
-1.00230E2,0E0
-1.24199E2,0E0
-1.58843E2,0E0
1.67117E2,0E0
1.36484E2,0E0
1.00804E2,0E0
6.12675E1,0E0
2.55986E1,0E0
4.14733E-1,0E0
-2.64609E1,0E0
-5.93906E1,0E0
-9.91367E1,0E0
-1.39835E2,0E0
-1.77968E2,0E0
1.46625E2,0E0
1.09496E2,0E0
6.55351E1,0E0
2.67783E1,0E0
-5.31616E0,0E0
-3.71425E1,0E0
-7.53281E1,0E0
-1.14726E2,0E0
-1.48289E2,0E0
-1.79867E2,0E0
1.44179E2,0E0
1.05304E2,0E0
6.80195E1,0E0
3.39433E1,0E0
-3.47168E0,0E0
-4.01855E1,0E0
-7.76093E1,0E0
-1.13437E2,0E0
-1.46437E2,0E0
1.77617E2,0E0
1.38843E2,0E0
9.92421E1,0E0
6.71953E1,0E0
3.35273E1,0E0
-4.78198E0,0E0
-4.06289E1,0E0
-7.89609E1,0E0
-1.17769E2,0E0
-1.58406E2,0E0
1.65031E2,0E0
1.29015E2,0E0
9.30351E1,0E0
5.42499E1,0E0
1.70273E1,0E0
-1.74384E1,0E0
-5.37656E1,0E0
-9.00703E1,0E0
END

