CITIFILE A.01.00
#NA VERSION HP8753E.07.12
NAME FORMATTED
VAR FREQ MAG 201
DATA S[1,1] RI
SEG_LIST_BEGIN
SEG 30000 6000000000 201
SEG_LIST_END
BEGIN
8.79589E0,0E0
-4.09492E1,0E0
-7.89882E1,0E0
-1.24648E2,0E0
-1.64476E2,0E0
1.52468E2,0E0
1.04054E2,0E0
4.71816E1,0E0
-3.37089E1,0E0
1.29421E2,0E0
4.35664E1,0E0
-9.50048E0,0E0
-6.15332E1,0E0
-1.06593E2,0E0
-1.54390E2,0E0
1.70476E2,0E0
1.51515E2,0E0
1.03812E2,0E0
5.42695E1,0E0
6.65E1,0E0
4.12187E1,0E0
-6.87622E0,0E0
-5.15546E1,0E0
-9.19921E1,0E0
-1.30703E2,0E0
-1.68789E2,0E0
1.49953E2,0E0
1.14449E2,0E0
7.56328E1,0E0
3.52226E1,0E0
-6.21972E0,0E0
-4.08652E1,0E0
-7.80742E1,0E0
-1.19964E2,0E0
-1.58789E2,0E0
1.61546E2,0E0
1.20902E2,0E0
7.81874E1,0E0
3.57265E1,0E0
-9.98828E0,0E0
-5.97617E1,0E0
-1.03800E2,0E0
-1.60109E2,0E0
1.36210E2,0E0
6.96601E1,0E0
-5.60302E0,0E0
-7.79335E1,0E0
-1.49226E2,0E0
1.50578E2,0E0
1.01187E2,0E0
5.40937E1,0E0
4.57031E0,0E0
-4.07578E1,0E0
-8.15507E1,0E0
-1.23300E2,0E0
-1.69390E2,0E0
1.51640E2,0E0
1.11468E2,0E0
6.78789E1,0E0
2.47666E1,0E0
-1.69550E1,0E0
-6.31679E1,0E0
-1.14425E2,0E0
-1.22390E2,0E0
-1.34179E2,0E0
1.79328E2,0E0
1.36992E2,0E0
1.00589E2,0E0
5.96542E1,0E0
1.60205E1,0E0
-2.19472E1,0E0
-5.63671E1,0E0
-9.36367E1,0E0
-1.35062E2,0E0
-1.71671E2,0E0
1.51671E2,0E0
1.15168E2,0E0
7.89882E1,0E0
4.46074E1,0E0
6.08349E0,0E0
-3.15918E1,0E0
-6.20839E1,0E0
-9.30351E1,0E0
-1.29914E2,0E0
-1.74218E2,0E0
1.47343E2,0E0
1.10644E2,0E0
7.00351E1,0E0
2.96445E1,0E0
-1.53208E1,0E0
-6.10214E1,0E0
-8.5625E1,0E0
-8.14921E1,0E0
-1.09550E2,0E0
-1.50812E2,0E0
1.66031E2,0E0
1.26222E2,0E0
9.28710E1,0E0
5.24824E1,0E0
1.07402E1,0E0
-2.97529E1,0E0
-6.93203E1,0E0
-1.08507E2,0E0
-1.41398E2,0E0
-1.53273E2,0E0
1.70281E2,0E0
1.32859E2,0E0
9.75156E1,0E0
6.43945E1,0E0
2.46337E1,0E0
-1.50376E1,0E0
-4.86054E1,0E0
-8.20742E1,0E0
-1.16648E2,0E0
-1.54218E2,0E0
1.69796E2,0E0
1.35656E2,0E0
1.04894E2,0E0
7.25468E1,0E0
3.78339E1,0E0
1.42822E0,0E0
-3.51796E1,0E0
-6.69687E1,0E0
-1.03566E2,0E0
-1.42242E2,0E0
1.77125E2,0E0
1.39757E2,0E0
1.03320E2,0E0
6.44062E1,0E0
2.07343E1,0E0
-2.18339E1,0E0
-5.77910E1,0E0
-9.15351E1,0E0
-1.27863E2,0E0
-1.73679E2,0E0
1.42765E2,0E0
1.05089E2,0E0
7.10390E1,0E0
3.26386E1,0E0
-1.25302E1,0E0
-5.52011E1,0E0
-8.99140E1,0E0
-1.26437E2,0E0
-1.71515E2,0E0
1.30023E2,0E0
7.61914E1,0E0
2.57080E1,0E0
-2.57441E1,0E0
-8.72617E1,0E0
-1.47031E2,0E0
1.68851E2,0E0
1.25E2,0E0
6.34257E1,0E0
4.21044E0,0E0
-3.58789E1,0E0
-7.15546E1,0E0
-1.24976E2,0E0
1.74179E2,0E0
1.32085E2,0E0
9.8125E1,0E0
5.44492E1,0E0
-5.27905E0,0E0
-5.43906E1,0E0
-7.70898E1,0E0
-9.64687E1,0E0
-1.24449E2,0E0
1.72265E2,0E0
1.18722E2,0E0
9.01093E1,0E0
6.21054E1,0E0
1.62675E1,0E0
-4.57187E1,0E0
-9.03867E1,0E0
-1.19156E2,0E0
-1.49820E2,0E0
1.66093E2,0E0
1.1075E2,0E0
6.97304E1,0E0
4.26601E1,0E0
9.67724E0,0E0
-3.90644E1,0E0
-8.62226E1,0E0
-1.20515E2,0E0
-1.46859E2,0E0
-1.79820E2,0E0
1.40382E2,0E0
1.03730E2,0E0
6.31113E1,0E0
2.18857E1,0E0
-1.51381E1,0E0
-4.87324E1,0E0
-8.12382E1,0E0
-1.15007E2,0E0
-1.51273E2,0E0
1.69960E2,0E0
1.32164E2,0E0
9.60078E1,0E0
6.40664E1,0E0
2.76660E1,0E0
-1.52836E1,0E0
-5.40390E1,0E0
END

