CITIFILE A.01.00
#NA VERSION HP8753E.07.12
NAME FORMATTED
VAR FREQ MAG 201
DATA S[2,2] RI
SEG_LIST_BEGIN
SEG 30000 6000000000 201
SEG_LIST_END
BEGIN
9.16113E0,0E0
-4.08105E1,0E0
-7.88515E1,0E0
-1.24566E2,0E0
-1.64367E2,0E0
1.53648E2,0E0
1.06980E2,0E0
5.33710E1,0E0
-2.73974E0,0E0
7.66875E1,0E0
3.99062E1,0E0
-1.56406E1,0E0
-6.52812E1,0E0
-1.07527E2,0E0
-1.52117E2,0E0
1.73304E2,0E0
1.45609E2,0E0
1.01238E2,0E0
5.94570E1,0E0
2.96982E1,0E0
-2.66015E0,0E0
-4.32519E1,0E0
-8.49375E1,0E0
-1.235E2,0E0
-1.65546E2,0E0
1.52109E2,0E0
1.10511E2,0E0
7.38554E1,0E0
2.94638E1,0E0
-1.78613E1,0E0
-5.76972E1,0E0
-1.00957E2,0E0
-1.48468E2,0E0
1.65453E2,0E0
1.26015E2,0E0
5.69511E1,0E0
-1.74562E2,0E0
1.28859E2,0E0
8.13320E1,0E0
4.64882E1,0E0
7.73144E0,0E0
-3.42968E1,0E0
-7.55546E1,0E0
-1.17839E2,0E0
-1.59937E2,0E0
1.62835E2,0E0
1.20675E2,0E0
8.22226E1,0E0
4.69394E1,0E0
5.66333E0,0E0
-3.32402E1,0E0
-7.16875E1,0E0
-1.06796E2,0E0
-1.45546E2,0E0
1.73523E2,0E0
1.38765E2,0E0
1.02296E2,0E0
6.39238E1,0E0
2.36210E1,0E0
-1.17817E1,0E0
-5.12050E1,0E0
-9.18398E1,0E0
-1.29640E2,0E0
-1.67343E2,0E0
1.58851E2,0E0
1.21847E2,0E0
8.81679E1,0E0
5.39140E1,0E0
1.47998E1,0E0
-1.67656E1,0E0
-4.14882E1,0E0
-6.97304E1,0E0
-1.06453E2,0E0
-1.42539E2,0E0
1.78476E2,0E0
1.40007E2,0E0
1.02332E2,0E0
6.77265E1,0E0
3.05166E1,0E0
-1.25742E1,0E0
-4.59550E1,0E0
-8.06523E1,0E0
-1.13468E2,0E0
-1.54609E2,0E0
1.68484E2,0E0
1.31E2,0E0
9.63242E1,0E0
6.00664E1,0E0
2.12031E1,0E0
-1.94892E1,0E0
-6.00957E1,0E0
-8.5375E1,0E0
-1.06828E2,0E0
-1.39140E2,0E0
-1.78953E2,0E0
1.43757E2,0E0
1.10269E2,0E0
7.65273E1,0E0
3.71679E1,0E0
-4.73510E0,0E0
-4.55E1,0E0
-7.80312E1,0E0
-1.04074E2,0E0
-1.38468E2,0E0
1.78593E2,0E0
1.35203E2,0E0
9.40039E1,0E0
6.41718E1,0E0
8.37304E1,0E0
8.77265E1,0E0
5.35136E1,0E0
8.15576E0,0E0
-3.27910E1,0E0
-6.97031E1,0E0
-1.05730E2,0E0
-1.44414E2,0E0
1.75835E2,0E0
1.39843E2,0E0
1.05367E2,0E0
7.07148E1,0E0
3.54511E1,0E0
-1.24011E0,0E0
-3.82324E1,0E0
-7.38867E1,0E0
-1.07136E2,0E0
-1.43117E2,0E0
1.79968E2,0E0
1.44929E2,0E0
1.10589E2,0E0
7.47656E1,0E0
3.87597E1,0E0
3.73938E0,0E0
-2.69316E1,0E0
-5.59277E1,0E0
-8.50429E1,0E0
-1.20839E2,0E0
-1.55804E2,0E0
1.75046E2,0E0
1.47007E2,0E0
1.10214E2,0E0
6.58593E1,0E0
2.32373E1,0E0
-1.42070E1,0E0
-4.72499E1,0E0
-8.54843E1,0E0
-1.25527E2,0E0
-1.69210E2,0E0
1.61484E2,0E0
1.42687E2,0E0
1.13605E2,0E0
7.45429E1,0E0
2.83964E1,0E0
-6.96826E0,0E0
-3.94609E1,0E0
-7.17187E1,0E0
-1.09804E2,0E0
-1.49375E2,0E0
1.72609E2,0E0
1.38382E2,0E0
1.13105E2,0E0
7.61445E1,0E0
3.35136E1,0E0
-4.99877E0,0E0
-3.09062E1,0E0
-5.72910E1,0E0
-9.33515E1,0E0
-1.34835E2,0E0
-1.74796E2,0E0
1.5425E2,0E0
1.23820E2,0E0
9.37148E1,0E0
5.22812E1,0E0
1.08252E1,0E0
-2.11464E1,0E0
-5.19980E1,0E0
-8.64414E1,0E0
-1.26808E2,0E0
-1.645E2,0E0
1.61015E2,0E0
1.26628E2,0E0
8.84921E1,0E0
4.7375E1,0E0
1.01440E1,0E0
-2.67275E1,0E0
-6.40742E1,0E0
-1.05668E2,0E0
-1.48812E2,0E0
1.71679E2,0E0
1.34484E2,0E0
9.37929E1,0E0
4.91054E1,0E0
1.09711E1,0E0
-2.28730E1,0E0
-6.31953E1,0E0
-1.12918E2,0E0
-1.70648E2,0E0
1.50234E2,0E0
1.19324E2,0E0
8.33789E1,0E0
2.82656E1,0E0
-2.43916E1,0E0
END

